Time (s) Channel ID RX/TX d Length Byte 1 Byte 2 Byte 3 Byte 4 Byte 5 Byte 6 Byte 7 Byte 8
5.29517 1 123 Rx d 8 00 00 00 00 00 00 00 00
5.30506 1 123 Rx d 8 00 00 00 00 00 00 00 00
5.31502 1 123 Rx d 8 00 00 00 00 00 00 00 00
5.3249 1 123 Rx d 8 00 74 00 00 00 00 00 00
5.33515 1 123 Rx d 8 00 74 00 00 00 00 00 00
5.34497 1 123 Rx d 8 00 74 00 00 00 00 00 00
5.355 1 123 Rx d 8 00 74 00 00 00 00 00 00
5.365 1 123 Rx d 8 00 74 00 83 00 7D 00 00
5.37513 1 123 Rx d 8 00 83 00 83 00 7D 00 00
5.38484 1 123 Rx d 8 00 86 00 83 00 7D 00 00
5.39505 1 123 Rx d 8 00 89 00 83 00 7D 00 00
5.40501 1 123 Rx d 8 00 8C 00 8F 00 88 00 8C
5.41494 1 123 Rx d 8 00 8F 00 93 00 8B 00 8C
5.42504 1 123 Rx d 8 00 95 00 97 00 8E 00 8C
5.43509 1 123 Rx d 8 00 99 00 9B 00 91 00 8C
5.44496 1 123 Rx d 8 00 9D 00 9F 00 94 00 8C
5.4551 1 123 Rx d 8 00 A1 00 A0 00 9D 00 9A
5.465 1 123 Rx d 8 00 A3 00 A4 00 A2 00 9D
5.47501 1 123 Rx d 8 00 A7 00 A8 00 A7 00 A0
5.485 1 123 Rx d 8 00 AB 00 AC 00 AC 00 A3
5.49518 1 123 Rx d 8 00 AF 00 AC 00 AA 00 AC
5.50482 1 123 Rx d 8 00 B3 00 B0 00 AE 00 B2
5.51503 1 123 Rx d 8 00 B2 00 B4 00 B2 00 B8
5.52504 1 123 Rx d 8 00 B5 00 B8 00 B6 00 BE
5.53497 1 123 Rx d 8 00 B8 00 BB 00 BB 00 B8
5.54498 1 123 Rx d 8 00 BE 00 C0 00 C0 00 BC
5.55504 1 123 Rx d 8 00 C4 00 C5 00 C5 00 C0
5.56501 1 123 Rx d 8 00 CA 00 C7 00 CA 00 C4
5.57502 1 123 Rx d 8 00 D0 00 CD 00 C6 00 C6
5.58502 1 123 Rx d 8 00 CD 00 D3 00 C9 00 CA
5.59506 1 123 Rx d 8 00 D2 00 D9 00 CC 00 CE
5.60498 1 123 Rx d 8 00 D7 00 D6 00 D3 00 D2
5.61509 1 123 Rx d 8 00 D9 00 DB 00 D9 00 D8
5.62498 1 123 Rx d 8 00 DF 00 E0 00 DF 00 DE
5.63506 1 123 Rx d 8 00 E5 00 E2 00 E5 00 DF
5.64502 1 123 Rx d 8 00 EB 00 E8 00 DE 00 E5
5.65514 1 123 Rx d 8 00 E5 00 EE 00 E1 00 EB
5.66502 1 123 Rx d 8 00 E9 00 EF 00 E4 00 EA
5.67508 1 123 Rx d 8 00 ED 00 F5 00 EB 00 EF
5.68507 1 123 Rx d 8 00 F0 00 FB 00 F1 00 F4
5.69506 1 123 Rx d 8 00 F5 00 F9 00 F7 00 F9
5.70504 1 123 Rx d 8 00 FA 00 FE 00 F6 00 F8
5.71505 1 123 Rx d 8 00 FB 01 03 00 FB 00 FC
5.72506 1 123 Rx d 8 01 00 01 04 01 00 01 02
5.73509 1 123 Rx d 8 01 05 01 09 01 02 01 0C
5.74498 1 123 Rx d 8 01 0F 01 0E 01 08 01 16
5.75515 1 123 Rx d 8 01 19 01 0D 01 0B 01 0D
5.765 1 123 Rx d 8 01 10 01 11 01 14 01 12
5.77504 1 123 Rx d 8 01 15 01 15 01 1D 01 17
5.78505 1 123 Rx d 8 01 1A 01 19 01 16 01 16
5.79508 1 123 Rx d 8 01 1C 01 1F 01 1B 01 1A
5.80503 1 123 Rx d 8 01 22 01 22 01 20 01 1F
5.81513 1 123 Rx d 8 01 26 01 2B 01 1F 01 28
5.82507 1 123 Rx d 8 01 30 01 34 01 23 01 31
5.83508 1 123 Rx d 8 01 3A 01 2D 01 2A 01 28
5.84512 1 123 Rx d 8 01 30 01 32 01 35 01 2C
5.85517 1 123 Rx d 8 01 35 01 36 01 34 01 33
5.86493 1 123 Rx d 8 01 3A 01 3F 01 3E 01 3E
5.87521 1 123 Rx d 8 01 44 01 3F 01 48 01 49
5.88506 1 123 Rx d 8 01 42 01 48 01 3D 01 3C
5.89507 1 123 Rx d 8 01 4A 01 46 01 41 01 40
5.9051 1 123 Rx d 8 01 52 01 4D 01 46 01 45
5.91518 1 123 Rx d 8 01 4B 01 54 01 4F 01 4E
5.92492 1 123 Rx d 8 01 4F 01 4E 01 4F 01 4E
5.93511 1 123 Rx d 8 01 51 01 52 01 58 01 57
5.94514 1 123 Rx d 8 01 57 01 57 01 57 01 57
5.95528 1 123 Rx d 8 01 5A 01 60 01 5F 01 60
5.96512 1 123 Rx d 8 01 63 01 60 01 67 01 5D
5.97516 1 123 Rx d 8 01 63 01 69 01 5E 01 63
5.98493 1 123 Rx d 8 01 6C 01 68 01 61 01 69
5.99517 1 123 Rx d 8 01 6C 01 70 01 66 01 66
6.00508 1 123 Rx d 8 01 75 01 71 01 6E 01 6A
6.01506 1 123 Rx d 8 01 74 01 7A 01 6E 01 6C
6.0251 1 123 Rx d 8 01 7C 01 78 01 76 01 72
6.03518 1 123 Rx d 8 01 7B 01 7F 01 75 01 75
6.0449 1 123 Rx d 8 01 82 01 80 01 7C 01 7E
6.05531 1 123 Rx d 8 01 83 01 88 01 7B 01 7D
6.06513 1 123 Rx d 8 01 8B 01 86 01 81 01 84
6.07508 1 123 Rx d 8 01 8A 01 8C 01 86 01 84
6.08507 1 123 Rx d 8 01 91 01 8D 01 91 01 8A
6.09528 1 123 Rx d 8 01 90 01 94 01 8F 01 90
6.10508 1 123 Rx d 8 01 96 01 93 01 95 01 93
6.11513 1 123 Rx d 8 01 98 01 99 01 95 01 9C
6.12509 1 123 Rx d 8 01 9E 01 9B 01 9C 01 9B
6.13511 1 123 Rx d 8 01 9E 01 A3 01 A3 01 A3
6.14506 1 123 Rx d 8 01 A4 01 A3 01 A6 01 A1
6.15517 1 123 Rx d 8 01 AA 01 A9 01 B0 01 A7
6.16505 1 123 Rx d 8 01 AC 01 AF 01 AC 01 A7
6.17516 1 123 Rx d 8 01 B4 01 AF 01 B0 01 AF
6.18513 1 123 Rx d 8 01 B5 01 B5 01 B0 01 AF
6.19512 1 123 Rx d 8 01 BB 01 B6 01 B8 01 B5
6.20511 1 123 Rx d 8 01 BB 01 BE 01 C0 01 BB
6.21517 1 123 Rx d 8 01 C1 01 BE 01 BE 01 BB
6.22514 1 123 Rx d 8 01 C7 01 C5 01 C5 01 C1
6.23515 1 123 Rx d 8 01 CA 01 C8 01 C5 01 C1
6.24513 1 123 Rx d 8 01 D0 01 C8 01 CB 01 C7
6.25516 1 123 Rx d 8 01 D0 01 CE 01 D1 01 CD
6.26515 1 123 Rx d 8 01 D4 01 D4 01 D1 01 CD
6.27519 1 123 Rx d 8 01 DC 01 D7 01 D7 01 D3
6.28504 1 123 Rx d 8 01 DC 01 DE 01 D7 01 D3
6.2952 1 123 Rx d 8 01 E4 01 DE 01 DE 01 D9
6.3051 1 123 Rx d 8 01 EA 01 E1 01 E4 01 E1
6.31513 1 123 Rx d 8 01 EA 01 E8 01 E4 01 E1
6.3252 1 123 Rx d 8 01 EE 01 E8 01 EA 01 E7
6.33518 1 123 Rx d 8 01 F6 01 F0 01 F1 01 ED
6.34512 1 123 Rx d 8 01 F6 01 F3 01 F1 01 EB
6.35525 1 123 Rx d 8 01 FA 01 F3 01 F9 01 F1
6.36517 1 123 Rx d 8 01 FF 01 F9 01 FD 01 F1
6.37516 1 123 Rx d 8 01 FF 01 FF 01 FD 01 F7
6.38516 1 123 Rx d 8 02 06 01 FF 02 02 01 FC
6.39521 1 123 Rx d 8 02 0C 02 03 02 08 02 02
6.40509 1 123 Rx d 8 02 0C 02 08 02 08 02 02
6.41531 1 123 Rx d 8 02 11 02 08 02 0E 02 08
6.42514 1 123 Rx d 8 02 19 02 0E 02 12 02 0C
6.43515 1 123 Rx d 8 02 1D 02 12 02 12 02 0C
6.44517 1 123 Rx d 8 02 1D 02 19 02 19 02 11
6.4552 1 123 Rx d 8 02 23 02 19 02 20 02 17
6.46512 1 123 Rx d 8 02 29 02 1F 02 25 02 17
6.47524 1 123 Rx d 8 02 29 02 23 02 25 02 1C
6.48523 1 123 Rx d 8 02 2E 02 23 02 28 02 20
6.49514 1 123 Rx d 8 02 35 02 2B 02 2E 02 25
6.50522 1 123 Rx d 8 02 3B 02 2F 02 35 02 25
6.51523 1 123 Rx d 8 02 3B 02 34 02 35 02 2B
6.525 1 123 Rx d 8 02 40 02 34 02 3A 02 31
6.53524 1 123 Rx d 8 02 44 02 38 02 3E 02 37
6.54516 1 123 Rx d 8 02 46 02 3D 02 46 02 37
6.55514 1 123 Rx d 8 02 4D 02 43 02 46 02 3B
6.56515 1 123 Rx d 8 02 4D 02 47 02 4A 02 40
6.57523 1 123 Rx d 8 02 52 02 47 02 4F 02 46
6.58505 1 123 Rx d 8 02 55 02 4C 02 55 02 46
6.59522 1 123 Rx d 8 02 5B 02 52 02 5A 02 4A
6.60521 1 123 Rx d 8 02 63 02 55 02 5A 02 4F
6.61516 1 123 Rx d 8 02 63 02 55 02 5D 02 55
6.62518 1 123 Rx d 8 02 6A 02 5B 02 61 02 5A
6.63525 1 123 Rx d 8 02 6F 02 5E 02 69 02 5A
6.64515 1 123 Rx d 8 02 73 02 64 02 6F 02 60
6.65524 1 123 Rx d 8 02 76 02 6A 02 72 02 63
6.66518 1 123 Rx d 8 02 7B 02 70 02 72 02 67
6.67521 1 123 Rx d 8 02 7B 02 70 02 75 02 6C
6.68515 1 123 Rx d 8 02 81 02 76 02 76 02 73
6.69527 1 123 Rx d 8 02 84 02 79 02 7B 02 73
6.70514 1 123 Rx d 8 02 87 02 7F 02 82 02 7B
6.71522 1 123 Rx d 8 02 8D 02 85 02 8B 02 7F
6.72524 1 123 Rx d 8 02 98 02 8A 02 93 02 82
6.73521 1 123 Rx d 8 02 9C 02 8D 02 93 02 82
6.7452 1 123 Rx d 8 02 9E 02 8D 02 96 02 85
6.75528 1 123 Rx d 8 02 9E 02 92 02 99 02 8D
6.76519 1 123 Rx d 8 02 A1 02 96 02 9E 02 8D
6.77523 1 123 Rx d 8 02 A5 02 9C 02 A2 02 96
6.78526 1 123 Rx d 8 02 AE 02 9F 02 A4 02 9B
6.79528 1 123 Rx d 8 02 B3 02 A2 02 A5 02 9C
6.80521 1 123 Rx d 8 02 B4 02 A7 02 AB 02 9F
6.81525 1 123 Rx d 8 02 B6 02 AD 02 B4 02 A5
6.82516 1 123 Rx d 8 02 B7 02 B3 02 BC 02 AB
6.83532 1 123 Rx d 8 02 BD 02 B7 02 BC 02 B0
6.84521 1 123 Rx d 8 02 C5 02 B7 02 BD 02 B1
6.85523 1 123 Rx d 8 02 CB 02 BA 02 BD 02 B4
6.86531 1 123 Rx d 8 02 CE 02 BD 02 C2 02 BA
6.87527 1 123 Rx d 8 02 D1 02 C3 02 CA 02 BA
6.88522 1 123 Rx d 8 02 D4 02 C8 02 D1 02 BF
6.89531 1 123 Rx d 8 02 DC 02 CB 02 D6 02 C2
6.90522 1 123 Rx d 8 02 E2 02 CE 02 D7 02 C3
6.91527 1 123 Rx d 8 02 E6 02 D3 02 D9 02 C8
6.92526 1 123 Rx d 8 02 E9 02 D7 02 DD 02 CE
6.9353 1 123 Rx d 8 02 E9 02 DC 02 E5 02 D3
6.94523 1 123 Rx d 8 02 EB 02 E0 02 EB 02 D7
6.95534 1 123 Rx d 8 02 EE 02 E3 02 EE 02 DA
6.96523 1 123 Rx d 8 02 F5 02 E8 02 EF 02 DD
6.97522 1 123 Rx d 8 02 FD 02 EC 02 F1 02 E5
6.98535 1 123 Rx d 8 03 01 02 EE 02 F5 02 E9
6.99534 1 123 Rx d 8 03 05 02 F1 02 FB 02 EC
7.00519 1 123 Rx d 8 03 09 02 F7 03 01 02 EE
7.01535 1 123 Rx d 8 03 0F 02 FD 03 08 02 F1
7.0253 1 123 Rx d 8 03 12 03 00 03 09 02 F4
7.03522 1 123 Rx d 8 03 15 03 03 03 0C 02 FB
7.04528 1 123 Rx d 8 03 18 03 08 03 11 03 01
7.05533 1 123 Rx d 8 03 1B 03 0C 03 17 03 06
7.06507 1 123 Rx d 8 03 20 03 14 03 1B 03 08
7.07533 1 123 Rx d 8 03 24 03 1A 03 1E 03 0B
7.08525 1 123 Rx d 8 03 27 03 1D 03 20 03 0F
7.09522 1 123 Rx d 8 03 2C 03 1E 03 24 03 14
7.10526 1 123 Rx d 8 03 30 03 1E 03 2C 03 1A
7.11533 1 123 Rx d 8 03 35 03 21 03 32 03 1E
7.12518 1 123 Rx d 8 03 39 03 2A 03 35 03 20
7.13533 1 123 Rx d 8 03 40 03 32 03 38 03 24
7.14537 1 123 Rx d 8 03 44 03 35 03 3B 03 2C
7.15524 1 123 Rx d 8 03 47 03 38 03 3E 03 30
7.16525 1 123 Rx d 8 03 4C 03 3B 03 44 03 35
7.17536 1 123 Rx d 8 03 50 03 40 03 47 03 36
7.18521 1 123 Rx d 8 03 53 03 44 03 4A 03 3B
7.19532 1 123 Rx d 8 03 55 03 47 03 4C 03 40
7.20527 1 123 Rx d 8 03 59 03 4A 03 53 03 44
7.2153 1 123 Rx d 8 03 5E 03 50 03 59 03 49
7.22524 1 123 Rx d 8 03 61 03 55 03 5F 03 4A
7.23538 1 123 Rx d 8 03 61 03 58 03 62 03 4D
7.24524 1 123 Rx d 8 03 68 03 5B 03 64 03 53
7.25532 1 123 Rx d 8 03 71 03 5F 03 67 03 58
7.26532 1 123 Rx d 8 03 77 03 62 03 6D 03 5E
7.27531 1 123 Rx d 8 03 7E 03 65 03 74 03 5F
7.28529 1 123 Rx d 8 03 7B 03 6A 03 77 03 62
7.29537 1 123 Rx d 8 03 81 03 73 03 7B 03 65
7.30527 1 123 Rx d 8 03 85 03 79 03 7C 03 6B
7.31536 1 123 Rx d 8 03 8D 03 79 03 7F 03 71
7.32528 1 123 Rx d 8 03 90 03 7B 03 85 03 74
7.33539 1 123 Rx d 8 03 90 03 7E 03 8D 03 77
7.34527 1 123 Rx d 8 03 90 03 85 03 93 03 7C
7.35535 1 123 Rx d 8 03 97 03 8E 03 97 03 7F
7.36527 1 123 Rx d 8 03 A5 03 91 03 9A 03 84
7.37544 1 123 Rx d 8 03 AE 03 91 03 9C 03 88
7.38535 1 123 Rx d 8 03 AF 03 91 03 9D 03 8D
7.39535 1 123 Rx d 8 03 B2 03 96 03 A2 03 91
7.40537 1 123 Rx d 8 03 B2 03 9F 03 AB 03 97
7.41541 1 123 Rx d 8 03 B1 03 A3 03 B2 03 9A
7.42529 1 123 Rx d 8 03 B7 03 A5 03 B6 03 9D
7.4354 1 123 Rx d 8 03 BC 03 A8 03 B6 03 A0
7.44532 1 123 Rx d 8 03 C6 03 AC 03 B7 03 A6
7.45536 1 123 Rx d 8 03 CE 03 B2 03 BC 03 AC
7.46536 1 123 Rx d 8 03 D1 03 B7 03 BF 03 AF
7.47538 1 123 Rx d 8 03 CE 03 BA 03 C5 03 B1
7.48518 1 123 Rx d 8 03 CE 03 BF 03 CC 03 B2
7.49541 1 123 Rx d 8 03 D1 03 C2 03 D1 03 BA
7.50532 1 123 Rx d 8 03 D7 03 C6 03 D2 03 C3
7.51536 1 123 Rx d 8 03 E0 03 C8 03 D7 03 C6
7.52543 1 123 Rx d 8 03 E6 03 CC 03 DA 03 C8
7.53543 1 123 Rx d 8 03 E9 03 CF 03 E0 03 CB
7.54526 1 123 Rx d 8 03 EC 03 D5 03 E3 03 CE
7.5554 1 123 Rx d 8 03 EF 03 DB 03 E7 03 D2
7.56538 1 123 Rx d 8 03 F2 03 DB 03 EC 03 D8
7.57529 1 123 Rx d 8 03 FA 03 E3 03 EF 03 DE
7.58533 1 123 Rx d 8 04 00 03 ED 03 FB 03 E0
7.59543 1 123 Rx d 8 04 01 03 F1 03 FD 03 E1
7.60515 1 123 Rx d 8 04 04 03 F5 03 FE 03 E6
7.6154 1 123 Rx d 8 04 09 03 F7 04 00 03 E9
7.62533 1 123 Rx d 8 04 0D 03 F7 04 00 03 F1
7.63535 1 123 Rx d 8 04 16 03 FA 04 09 03 F7
7.64535 1 123 Rx d 8 04 1B 03 FD 04 10 03 F8
7.65541 1 123 Rx d 8 04 1B 04 00 04 12 03 FB
7.66529 1 123 Rx d 8 04 1B 04 06 04 15 03 FD
7.67544 1 123 Rx d 8 04 1B 04 0D 04 15 04 00
7.68538 1 123 Rx d 8 04 1F 04 18 04 19 04 06
7.6953 1 123 Rx d 8 04 27 04 19 04 1F 04 0D
7.70535 1 123 Rx d 8 04 2F 04 1B 04 22 04 10
7.71544 1 123 Rx d 8 04 32 04 19 04 25 04 13
7.7253 1 123 Rx d 8 04 35 04 19 04 27 04 15
7.73541 1 123 Rx d 8 04 38 04 1F 04 2F 04 16
7.74536 1 123 Rx d 8 04 38 04 2A 04 33 04 1C
7.75539 1 123 Rx d 8 04 3B 04 2D 04 39 04 21
7.76534 1 123 Rx d 8 04 3E 04 32 04 39 04 25
7.77546 1 123 Rx d 8 04 42 04 33 04 35 04 28
7.78535 1 123 Rx d 8 04 4B 04 35 04 3B 04 2C
7.79541 1 123 Rx d 8 04 51 04 39 04 42 04 30
7.80541 1 123 Rx d 8 04 51 04 3B 04 4A 04 33
7.81538 1 123 Rx d 8 04 50 04 41 04 50 04 35
7.82539 1 123 Rx d 8 04 50 04 48 04 4D 04 39
7.83546 1 123 Rx d 8 04 54 04 4D 04 50 04 3F
7.84531 1 123 Rx d 8 04 5A 04 53 04 54 04 44
7.85542 1 123 Rx d 8 04 65 04 50 04 5C 04 48
7.86536 1 123 Rx d 8 04 66 04 4E 04 5F 04 4A
7.87547 1 123 Rx d 8 04 68 04 54 04 60 04 4D
7.88538 1 123 Rx d 8 04 63 04 5C 04 62 04 51
7.89548 1 123 Rx d 8 04 6E 04 63 04 65 04 56
7.90539 1 123 Rx d 8 04 79 04 65 04 6B 04 5C
7.91549 1 123 Rx d 8 04 7F 04 66 04 70 04 5D
7.92541 1 123 Rx d 8 04 85 04 66 04 73 04 60
7.93541 1 123 Rx d 8 04 79 04 6B 04 76 04 65
7.94544 1 123 Rx d 8 04 77 04 74 04 79 04 68
7.95544 1 123 Rx d 8 04 80 04 7A 04 7F 04 6D
7.9654 1 123 Rx d 8 04 83 04 7C 04 83 04 70
7.97549 1 123 Rx d 8 04 8F 04 7C 04 86 04 73
7.98539 1 123 Rx d 8 04 8E 04 7F 04 88 04 77
7.99544 1 123 Rx d 8 04 97 04 82 04 89 04 7D
8.0054 1 123 Rx d 8 04 9B 04 8C 04 8C 04 82
8.01545 1 123 Rx d 8 04 9E 04 91 04 94 04 83
8.02539 1 123 Rx d 8 04 A6 04 92 04 98 04 85
8.03556 1 123 Rx d 8 04 A9 04 92 04 9D 04 89
8.04544 1 123 Rx d 8 04 AB 04 95 04 A1 04 8F
8.05543 1 123 Rx d 8 04 AF 04 9E 04 A6 04 94
8.06549 1 123 Rx d 8 04 AE 04 A5 04 AB 04 97
8.07544 1 123 Rx d 8 04 B8 04 A9 04 AC 04 98
8.08534 1 123 Rx d 8 04 AF 04 A8 04 B1 04 9D
8.09547 1 123 Rx d 8 04 C4 04 A8 04 B4 04 A1
8.10547 1 123 Rx d 8 04 C7 04 A9 04 BA 04 A9
8.11541 1 123 Rx d 8 04 D2 04 B4 04 BE 04 AE
8.1254 1 123 Rx d 8 04 D8 04 BD 04 C1 04 AE
8.1355 1 123 Rx d 8 04 D3 04 BE 04 C4 04 B1
8.14524 1 123 Rx d 8 04 CF 04 C1 04 C9 04 B7
8.15553 1 123 Rx d 8 04 CC 04 C3 04 D0 04 BE
8.16544 1 123 Rx d 8 04 D8 04 CA 04 D3 04 C3
8.17546 1 123 Rx d 8 04 E0 04 CD 04 D6 04 C6
8.18547 1 123 Rx d 8 04 EC 04 CF 04 D6 04 C6
8.19552 1 123 Rx d 8 04 EC 04 D2 04 D9 04 C9
8.20529 1 123 Rx d 8 04 EA 04 D5 04 E1 04 CF
8.2155 1 123 Rx d 8 04 F0 04 DC 04 E9 04 D8
8.2255 1 123 Rx d 8 04 ED 04 E4 04 EC 04 DB
8.2354 1 123 Rx d 8 04 F5 04 E9 04 EC 04 DB
8.24543 1 123 Rx d 8 04 FF 04 EA 04 F0 04 DC
8.25557 1 123 Rx d 8 05 08 04 F0 04 F3 04 E1
8.26539 1 123 Rx d 8 05 25 04 F2 04 FB 04 E9
8.2755 1 123 Rx d 8 05 19 04 F0 04 FB 04 EF
8.28547 1 123 Rx d 8 05 11 04 F5 04 FF 04 F0
8.29551 1 123 Rx d 8 04 FE 04 FE 05 04 04 F3
8.30543 1 123 Rx d 8 04 FC 05 0A 05 0D 04 F8
8.31554 1 123 Rx d 8 05 0D 05 11 05 11 04 FB
8.32544 1 123 Rx d 8 05 16 05 0E 05 11 04 FE
8.33549 1 123 Rx d 8 05 30 05 07 05 13 05 02
8.3455 1 123 Rx d 8 05 28 05 08 05 16 05 07
8.35548 1 123 Rx d 8 05 27 05 19 05 1C 05 0B
8.36545 1 123 Rx d 8 05 24 05 21 05 22 05 0D
8.37551 1 123 Rx d 8 05 28 05 25 05 25 05 10
8.38543 1 123 Rx d 8 05 34 05 21 05 2A 05 11
8.39553 1 123 Rx d 8 05 3A 05 21 05 2D 05 17
8.40551 1 123 Rx d 8 05 3F 05 22 05 2E 05 1C
8.41554 1 123 Rx d 8 05 3C 05 2B 05 34 05 1F
8.42547 1 123 Rx d 8 05 3F 05 37 05 39 05 1F
8.43558 1 123 Rx d 8 05 45 05 3C 05 3C 05 1F
8.44547 1 123 Rx d 8 05 4F 05 3C 05 3F 05 2D
8.45558 1 123 Rx d 8 05 4F 05 34 05 42 05 2E
8.46548 1 123 Rx d 8 05 4F 05 3A 05 45 05 39
8.47548 1 123 Rx d 8 05 4F 05 43 05 4C 05 3D
8.48555 1 123 Rx d 8 05 62 05 4C 05 4F 05 36
8.49553 1 123 Rx d 8 05 5D 05 4E 05 54 05 3C
8.50547 1 123 Rx d 8 05 66 05 54 05 59 05 3A
8.5156 1 123 Rx d 8 05 65 05 51 05 59 05 46
8.52544 1 123 Rx d 8 05 63 05 59 05 5A 05 59
8.53552 1 123 Rx d 8 05 6B 05 62 05 62 05 51
8.54554 1 123 Rx d 8 05 6F 05 66 05 69 05 57
8.55559 1 123 Rx d 8 05 7A 05 6E 05 6F 05 4F
8.56546 1 123 Rx d 8 05 7B 05 66 05 74 05 54
8.57572 1 123 Rx d 8 05 84 05 71 05 71 05 68
8.58549 1 123 Rx d 8 05 87 05 77 05 75 05 6E
8.59554 1 123 Rx d 8 05 8F 05 80 05 7E 05 75
8.60553 1 123 Rx d 8 05 94 05 86 05 86 05 6B
8.61557 1 123 Rx d 8 05 97 05 83 05 8C 05 69
8.62536 1 123 Rx d 8 05 9E 05 87 05 8F 05 6F
8.63556 1 123 Rx d 8 05 A3 05 8C 05 8F 05 7E
8.6455 1 123 Rx d 8 05 A7 05 92 05 94 05 8A
8.65547 1 123 Rx d 8 05 AA 05 94 05 9A 05 8A
8.66549 1 123 Rx d 8 05 B2 05 98 05 98 05 8A
8.67559 1 123 Rx d 8 05 B3 05 A1 05 AD 05 8D
8.68535 1 123 Rx d 8 05 BB 05 A9 05 B6 05 91
8.6956 1 123 Rx d 8 05 BC 05 AC 05 BE 05 9D
8.70555 1 123 Rx d 8 05 C4 05 AD 05 BB 05 A4
8.7155 1 123 Rx d 8 05 CA 05 B0 05 B2 05 A6
8.72557 1 123 Rx d 8 05 D5 05 B5 05 B5 05 A9
8.73559 1 123 Rx d 8 05 D6 05 BE 05 BE 05 AD
8.74546 1 123 Rx d 8 05 DF 05 C1 05 CF 05 B5
8.75559 1 123 Rx d 8 05 D8 05 C7 05 D9 05 BC
8.76561 1 123 Rx d 8 05 E2 05 D0 05 DB 05 BF
8.77548 1 123 Rx d 8 05 EA 05 D8 05 D8 05 C4
8.78555 1 123 Rx d 8 05 F4 05 DB 05 D9 05 CA
8.79567 1 123 Rx d 8 05 FA 05 DC 05 E1 05 D0
8.80549 1 123 Rx d 8 05 F7 05 E1 05 F0 05 D6
8.81562 1 123 Rx d 8 05 F7 05 E8 05 F1 05 DC
8.82556 1 123 Rx d 8 05 FC 05 F0 05 EE 05 DE
8.8356 1 123 Rx d 8 06 05 05 F6 05 F3 05 E2
8.84555 1 123 Rx d 8 06 0A 05 F9 05 FA 05 E7
8.85562 1 123 Rx d 8 06 0E 05 F9 06 08 05 ED
8.86555 1 123 Rx d 8 06 10 06 00 06 13 05 F4
8.87559 1 123 Rx d 8 06 1A 06 07 06 0B 05 F9
8.88557 1 123 Rx d 8 06 19 06 10 06 0B 05 FD
8.89554 1 123 Rx d 8 06 25 06 13 06 10 06 00
8.90556 1 123 Rx d 8 06 25 06 14 06 1D 06 07
8.91566 1 123 Rx d 8 06 2E 06 19 06 28 06 0D
8.92553 1 123 Rx d 8 06 2E 06 23 06 2B 06 10
8.93563 1 123 Rx d 8 06 37 06 2F 06 19 06 13
8.9456 1 123 Rx d 8 06 3A 06 2F 06 05 06 19
8.95563 1 123 Rx d 8 06 40 06 2F 06 22 06 1D
8.96556 1 123 Rx d 8 06 40 06 31 06 3B 06 25
8.97564 1 123 Rx d 8 06 48 06 32 06 66 06 29
8.98558 1 123 Rx d 8 06 46 06 3D 06 6C 06 2B
8.99564 1 123 Rx d 8 06 4E 06 46 06 42 06 2F
9.00561 1 123 Rx d 8 06 52 06 4E 06 2B 06 3A
9.01559 1 123 Rx d 8 06 5A 06 4F 06 23 06 46
9.02564 1 123 Rx d 8 06 63 06 51 06 4B 06 4B
9.03562 1 123 Rx d 8 06 61 06 54 06 6C 06 48
9.04543 1 123 Rx d 8 06 66 06 5D 06 73 06 48
9.05568 1 123 Rx d 8 06 67 06 64 06 72 06 4E
9.06559 1 123 Rx d 8 06 70 06 6C 06 5D 06 57
9.07564 1 123 Rx d 8 06 78 06 6D 06 55 06 64
9.08562 1 123 Rx d 8 06 83 06 6F 06 64 06 67
9.09568 1 123 Rx d 8 06 87 06 72 06 78 06 66
9.10555 1 123 Rx d 8 06 84 06 78 06 84 06 66
9.11568 1 123 Rx d 8 06 87 06 7C 06 89 06 6A
9.12558 1 123 Rx d 8 06 90 06 84 06 79 06 72
9.13558 1 123 Rx d 8 06 92 06 8C 06 79 06 7B
9.14565 1 123 Rx d 8 06 9C 06 8F 06 87 06 83
9.15561 1 123 Rx d 8 06 A1 06 8F 06 8C 06 7E
9.16553 1 123 Rx d 8 06 A7 06 93 06 A2 06 84
9.17568 1 123 Rx d 8 06 AA 06 99 06 A1 06 8A
9.18559 1 123 Rx d 8 06 AE 06 9F 06 9E 06 93
9.19558 1 123 Rx d 8 06 B7 06 A5 06 9F 06 9E
9.2056 1 123 Rx d 8 06 BB 06 A7 06 A4 06 9E
9.21569 1 123 Rx d 8 06 C1 06 AB 06 B3 06 9E
9.22546 1 123 Rx d 8 06 C8 06 B4 06 B7 06 A1
9.23572 1 123 Rx d 8 06 CB 06 C7 06 BC 06 A7
9.24563 1 123 Rx d 8 06 CB 06 CD 06 C1 06 B0
9.25556 1 123 Rx d 8 06 CB 06 D4 06 BF 06 B6
9.26564 1 123 Rx d 8 06 D1 06 BF 06 C7 06 BB
9.27568 1 123 Rx d 8 06 DC 06 C5 06 CE 06 BE
9.28554 1 123 Rx d 8 06 E6 06 D0 06 D4 06 C2
9.29567 1 123 Rx d 8 06 E6 06 DC 06 DC 06 CB
9.30564 1 123 Rx d 8 06 E8 06 E6 06 DC 06 CB
9.31561 1 123 Rx d 8 06 E9 06 E3 06 DF 06 CE
9.32564 1 123 Rx d 8 06 EF 06 E8 06 E5 06 D4
9.33578 1 123 Rx d 8 06 FD 06 E9 06 EB 06 DC
9.34547 1 123 Rx d 8 06 FF 06 F4 06 F2 06 E3
9.35579 1 123 Rx d 8 06 FF 06 F7 06 F4 06 E6
9.36568 1 123 Rx d 8 06 FD 07 02 06 FA 06 E8
9.37565 1 123 Rx d 8 07 0C 07 05 06 FF 06 EC
9.38567 1 123 Rx d 8 07 18 07 0E 07 02 06 F2
9.3957 1 123 Rx d 8 07 1E 07 0B 07 0B 06 F9
9.40559 1 123 Rx d 8 07 1A 07 09 07 0C 06 FC
9.41567 1 123 Rx d 8 07 15 07 15 07 14 07 00
9.42568 1 123 Rx d 8 07 1D 07 1D 07 17 07 06
9.43564 1 123 Rx d 8 07 24 07 20 07 18 07 0B
9.44564 1 123 Rx d 8 07 2F 07 20 07 1E 07 0F
9.45575 1 123 Rx d 8 07 38 07 24 07 1E 07 12
9.46562 1 123 Rx d 8 07 38 07 2A 07 2A 07 1B
9.47573 1 123 Rx d 8 07 40 07 35 07 31 07 21
9.48568 1 123 Rx d 8 07 41 07 3B 07 34 07 24
9.49575 1 123 Rx d 8 07 4C 07 3B 07 3D 07 27
9.50563 1 123 Rx d 8 07 52 07 40 07 3E 07 2C
9.51572 1 123 Rx d 8 07 56 07 46 07 44 07 31
9.52569 1 123 Rx d 8 07 58 07 44 07 4A 07 38
9.53574 1 123 Rx d 8 07 5B 07 4D 07 4D 07 3D
9.54567 1 123 Rx d 8 07 61 07 56 07 53 07 40
9.55567 1 123 Rx d 8 07 6C 07 5E 07 5B 07 47
9.5657 1 123 Rx d 8 07 72 07 56 07 5E 07 47
9.57571 1 123 Rx d 8 07 79 07 5C 07 64 07 50
9.58564 1 123 Rx d 8 07 78 07 64 07 67 07 59
9.5958 1 123 Rx d 8 07 81 07 6C 07 6D 07 5E
9.60567 1 123 Rx d 8 07 87 07 76 07 72 07 64
9.61572 1 123 Rx d 8 07 8E 07 78 07 78 07 65
9.62569 1 123 Rx d 8 07 93 07 82 07 7F 07 68
9.63576 1 123 Rx d 8 07 91 07 84 07 81 07 70
9.64564 1 123 Rx d 8 07 9A 07 8B 07 8A 07 76
9.65575 1 123 Rx d 8 07 9A 07 90 07 8D 07 7E
9.66566 1 123 Rx d 8 07 A0 07 97 07 91 07 82
9.67568 1 123 Rx d 8 07 A7 07 9A 07 97 07 84
9.68574 1 123 Rx d 8 07 AB 07 9D 07 9A 07 8B
9.69568 1 123 Rx d 8 07 B0 07 A5 07 A2 07 93
9.70554 1 123 Rx d 8 07 B4 07 AB 07 A5 07 94
9.7158 1 123 Rx d 8 07 B6 07 AE 07 AA 07 99
9.72569 1 123 Rx d 8 07 BD 07 B1 07 B0 07 9A
9.73567 1 123 Rx d 8 07 C3 07 B9 07 B6 07 9F
9.74571 1 123 Rx d 8 07 C9 07 BD 07 BC 07 A3
9.75582 1 123 Rx d 8 07 CC 07 C9 07 BF 07 AE
9.76554 1 123 Rx d 8 07 D4 07 C3 07 C0 07 B0
9.77574 1 123 Rx d 8 07 D5 07 CC 07 C8 07 BA
9.78573 1 123 Rx d 8 07 DA 07 CB 07 CC 07 BA
9.79566 1 123 Rx d 8 07 DB 07 D8 07 D2 07 BF
9.80572 1 123 Rx d 8 07 E0 07 DB 07 D7 07 C3
9.81577 1 123 Rx d 8 07 E3 07 DD 07 D7 07 C9
9.82565 1 123 Rx d 8 07 EB 07 E0 07 DD 07 D1
9.83577 1 123 Rx d 8 07 F5 07 E5 07 E0 07 D2
9.84573 1 123 Rx d 8 07 FD 07 EF 07 EB 07 D8
9.85571 1 123 Rx d 8 08 00 07 F5 07 EF 07 DD
9.86573 1 123 Rx d 8 08 03 07 F8 07 F4 07 E2
9.87585 1 123 Rx d 8 08 0C 07 FE 07 F5 07 E9
9.88556 1 123 Rx d 8 08 13 08 03 07 FA 07 EE
9.89584 1 123 Rx d 8 08 19 08 03 08 04 07 F1
9.90577 1 123 Rx d 8 08 1B 08 09 08 0D 07 F5
9.91574 1 123 Rx d 8 08 1D 08 10 08 13 08 00
9.9257 1 123 Rx d 8 08 27 08 18 08 16 08 04
9.93577 1 123 Rx d 8 08 2F 08 1B 08 16 08 0A
9.9457 1 123 Rx d 8 08 35 08 1E 08 1B 08 0C
9.95578 1 123 Rx d 8 08 35 08 26 08 21 08 10
9.96581 1 123 Rx d 8 08 3B 08 2F 08 30 08 1D
9.97578 1 123 Rx d 8 08 45 08 33 08 32 08 23
9.98572 1 123 Rx d 8 08 51 08 3C 08 35 08 26
9.99586 1 123 Rx d 8 08 50 08 42 08 35 08 29
10.00571 1 123 Rx d 8 08 50 08 45 08 3E 08 2A
10.01583 1 123 Rx d 8 08 51 08 4D 08 44 08 38
10.02575 1 123 Rx d 8 08 56 08 51 08 4D 08 3F
10.03579 1 123 Rx d 8 08 5B 08 56 08 4E 08 3F
10.04577 1 123 Rx d 8 08 62 08 58 08 50 08 47
10.05583 1 123 Rx d 8 08 6A 08 5F 08 56 08 48
10.06574 1 123 Rx d 8 08 64 08 62 08 59 08 4D
10.07579 1 123 Rx d 8 08 68 08 68 08 65 08 54
10.08573 1 123 Rx d 8 08 70 08 6B 08 65 08 5B
10.09594 1 123 Rx d 8 08 7A 08 73 08 6A 08 5E
10.1058 1 123 Rx d 8 08 7A 08 79 08 70 08 61
10.11585 1 123 Rx d 8 08 7F 08 76 08 70 08 65
10.12573 1 123 Rx d 8 08 82 08 7C 08 7A 08 68
10.13589 1 123 Rx d 8 08 80 08 7D 08 7C 08 70
10.14574 1 123 Rx d 8 08 86 08 86 08 80 08 77
10.15579 1 123 Rx d 8 08 89 08 88 08 83 08 77
10.16577 1 123 Rx d 8 08 8E 08 88 08 80 08 7C
10.17578 1 123 Rx d 8 08 97 08 89 08 86 08 7D
10.18571 1 123 Rx d 8 08 96 08 91 08 8B 08 85
10.19582 1 123 Rx d 8 08 9D 08 97 08 91 08 8E
10.20576 1 123 Rx d 8 08 9D 08 9A 08 96 08 8B
10.21574 1 123 Rx d 8 08 A3 08 A0 08 97 08 8E
10.22579 1 123 Rx d 8 08 AC 08 9F 08 9C 08 91
10.23578 1 123 Rx d 8 08 AC 08 9D 08 A0 08 91
10.24575 1 123 Rx d 8 08 AF 08 A0 08 A8 08 9C
10.25584 1 123 Rx d 8 08 AE 08 AB 08 A8 08 9D
10.26581 1 123 Rx d 8 08 BA 08 AC 08 AC 08 A3
10.27578 1 123 Rx d 8 08 BE 08 AE 08 AE 08 A0
10.28577 1 123 Rx d 8 08 C3 08 B1 08 AE 08 A3
10.2959 1 123 Rx d 8 08 CC 08 BE 08 B4 08 AE
10.30571 1 123 Rx d 8 08 D5 08 CF 08 B4 08 AF
10.31584 1 123 Rx d 8 08 E3 08 DB 08 BA 08 B4
10.32588 1 123 Rx d 8 08 E0 08 DB 08 C0 08 B7
10.33577 1 123 Rx d 8 08 E0 08 DA 08 C3 08 B7
10.34585 1 123 Rx d 8 08 E1 08 DE 08 CF 08 BE
10.35586 1 123 Rx d 8 08 E7 08 E7 08 D1 08 C9
10.36576 1 123 Rx d 8 08 ED 08 EC 08 D8 08 CF
10.37588 1 123 Rx d 8 08 F3 08 EF 08 DA 08 D1
10.38582 1 123 Rx d 8 08 F3 08 F0 08 E0 08 D7
10.3958 1 123 Rx d 8 08 F5 08 F3 08 E3 08 DA
10.40582 1 123 Rx d 8 08 F9 08 FE 08 EA 08 E1
10.41593 1 123 Rx d 8 09 07 09 05 08 ED 08 EA
10.42567 1 123 Rx d 8 09 0C 09 10 08 F2 08 F0
10.43588 1 123 Rx d 8 09 0C 09 0D 08 FB 08 EF
10.44585 1 123 Rx d 8 09 12 09 10 09 01 08 F3
10.4558 1 123 Rx d 8 09 13 09 16 09 0A 08 FE
10.4658 1 123 Rx d 8 09 18 09 1E 09 08 09 05
10.47587 1 123 Rx d 8 09 1B 09 25 09 0C 09 0F
10.48581 1 123 Rx d 8 09 21 09 24 09 0D 09 0F
10.49586 1 123 Rx d 8 09 2E 09 2D 09 16 09 13
10.50584 1 123 Rx d 8 09 36 09 39 09 1E 09 18
10.51589 1 123 Rx d 8 09 3C 09 3F 09 1F 09 22
10.52581 1 123 Rx d 8 09 3D 09 42 09 24 09 2A
10.53593 1 123 Rx d 8 09 43 09 48 09 27 09 2A
10.5458 1 123 Rx d 8 09 4A 09 4A 09 30 09 31
10.55591 1 123 Rx d 8 09 53 09 4E 09 39 09 34
10.56587 1 123 Rx d 8 09 50 09 57 09 3C 09 3C
10.57586 1 123 Rx d 8 09 5C 09 5F 09 40 09 43
10.58584 1 123 Rx d 8 09 68 09 63 09 47 09 4E
10.59592 1 123 Rx d 8 09 6E 09 6E 09 50 09 4E
10.60579 1 123 Rx d 8 09 78 09 7B 09 56 09 56
10.61588 1 123 Rx d 8 09 83 09 86 09 5A 09 5A
10.62591 1 123 Rx d 8 09 88 09 88 09 5D 09 65
10.63586 1 123 Rx d 8 09 77 09 77 09 66 09 72
10.64589 1 123 Rx d 8 09 6C 09 6F 09 72 09 78
10.65592 1 123 Rx d 8 09 6B 09 6C 09 7B 09 7E
10.66578 1 123 Rx d 8 09 71 09 7D 09 7E 09 7D
10.67595 1 123 Rx d 8 09 7D 09 8B 09 7A 09 7B
10.68581 1 123 Rx d 8 09 95 09 9A 09 7B 09 80
10.69587 1 123 Rx d 8 09 9D 09 A3 09 7B 09 86
10.70588 1 123 Rx d 8 09 A4 09 A9 09 85 09 8C
10.71587 1 123 Rx d 8 09 B0 09 B8 09 91 09 94
10.72579 1 123 Rx d 8 09 B6 09 C0 09 94 09 9A
10.7359 1 123 Rx d 8 09 B6 09 C3 09 9D 09 9D
10.74585 1 123 Rx d 8 09 B9 09 B9 09 9E 09 A1
10.75584 1 123 Rx d 8 09 B9 09 C0 09 A4 09 A7
10.76593 1 123 Rx d 8 09 B8 09 C1 09 AC 09 AD
10.7759 1 123 Rx d 8 09 B6 09 C6 09 AD 09 B3
10.78582 1 123 Rx d 8 09 B6 09 C3 09 B3 09 B5
10.79598 1 123 Rx d 8 09 D3 09 C7 09 B5 09 B9
10.80587 1 123 Rx d 8 09 D2 09 D2 09 B6 09 BE
10.81589 1 123 Rx d 8 09 DE 09 DF 09 BE 09 C4
10.82586 1 123 Rx d 8 09 D9 09 DE 09 C3 09 CF
10.83608 1 123 Rx d 8 09 E1 09 E7 09 CA 09 D2
10.84579 1 123 Rx d 8 09 E7 09 E5 09 D2 09 D8
10.85597 1 123 Rx d 8 09 F1 09 F1 09 D6 09 D9
10.86593 1 123 Rx d 8 09 F9 09 F9 09 DB 09 DC
10.87584 1 123 Rx d 8 09 FE 09 F9 09 DE 09 E4
10.88594 1 123 Rx d 8 0A 02 09 FB 09 E7 09 EA
10.89596 1 123 Rx d 8 0A 04 0A 05 09 ED 09 F0
10.90573 1 123 Rx d 8 0A 10 0A 0D 09 F1 09 F8
10.91598 1 123 Rx d 8 0A 17 0A 19 09 F4 09 F9
10.92592 1 123 Rx d 8 0A 10 0A 1C 09 F8 0A 04
10.9359 1 123 Rx d 8 0A 20 0A 1D 09 FF 0A 0A
10.9459 1 123 Rx d 8 0A 1C 0A 28 0A 0A 0A 11
10.95603 1 123 Rx d 8 0A 1F 0A 2B 0A 0E 0A 13
10.96571 1 123 Rx d 8 0A 26 0A 2B 0A 11 0A 17
10.97596 1 123 Rx d 8 0A 29 0A 31 0A 14 0A 1A
10.98594 1 123 Rx d 8 0A 33 0A 39 0A 19 0A 26
10.99592 1 123 Rx d 8 0A 33 0A 3D 0A 20 0A 29
11.00601 1 123 Rx d 8 0A 43 0A 48 0A 28 0A 2E
11.016 1 123 Rx d 8 0A 40 0A 51 0A 2C 0A 33
11.02594 1 123 Rx d 8 0A 46 0A 51 0A 37 0A 34
11.03596 1 123 Rx d 8 0A 52 0A 52 0A 36 0A 3D
11.04594 1 123 Rx d 8 0A 51 0A 58 0A 3C 0A 42
11.05596 1 123 Rx d 8 0A 55 0A 5B 0A 3F 0A 46
11.06588 1 123 Rx d 8 0A 52 0A 5E 0A 42 0A 4C
11.07601 1 123 Rx d 8 0A 5E 0A 64 0A 48 0A 4E
11.08589 1 123 Rx d 8 0A 67 0A 6E 0A 4B 0A 52
11.096 1 123 Rx d 8 0A 6E 0A 6F 0A 4C 0A 58
11.10596 1 123 Rx d 8 0A 71 0A 71 0A 55 0A 60
11.11594 1 123 Rx d 8 0A 77 0A 75 0A 5B 0A 64
11.12592 1 123 Rx d 8 0A 7E 0A 75 0A 63 0A 69
11.13598 1 123 Rx d 8 0A 7D 0A 80 0A 6C 0A 69
11.14596 1 123 Rx d 8 0A 87 0A 90 0A 6E 0A 6F
11.15602 1 123 Rx d 8 0A 96 0A 8D 0A 74 0A 7A
11.166 1 123 Rx d 8 0A 95 0A 81 0A 75 0A 7D
11.176 1 123 Rx d 8 0A 98 0A 95 0A 7B 0A 81
11.18594 1 123 Rx d 8 0A A2 0A AA 0A 86 0A 86
11.19599 1 123 Rx d 8 0A A5 0A A4 0A 84 0A 89
11.20588 1 123 Rx d 8 0A A2 0A 98 0A 90 0A 93
11.21603 1 123 Rx d 8 0A AF 0A C4 0A 92 0A 98
11.22589 1 123 Rx d 8 0A B3 0A C8 0A 99 0A A1
11.23593 1 123 Rx d 8 0A AD 0A B2 0A 9E 0A A4
11.24597 1 123 Rx d 8 0A C1 0A C2 0A A4 0A A4
11.25594 1 123 Rx d 8 0A C2 0A EA 0A AF 0A B3
11.26588 1 123 Rx d 8 0A C1 0A CA 0A AA 0A AF
11.276 1 123 Rx d 8 0A C7 0A D0 0A B2 0A B6
11.28596 1 123 Rx d 8 0A D9 0A FC 0A B9 0A BC
11.29599 1 123 Rx d 8 0A E2 0A E3 0A BF 0A C1
11.30599 1 123 Rx d 8 0A D3 0A EB 0A C4 0A C5
11.31604 1 123 Rx d 8 0A D3 0B 05 0A C5 0A C5
11.3259 1 123 Rx d 8 0A E7 0B 1E 0A D0 0A CD
11.33604 1 123 Rx d 8 0A E8 0A DA 0A D1 0A D4
11.34596 1 123 Rx d 8 0A EA 0B 37 0A D0 0A D7
11.35599 1 123 Rx d 8 0A F7 0B 20 0A D9 0A E0
11.36597 1 123 Rx d 8 0B 08 0A E8 0A DD 0A E5
11.37602 1 123 Rx d 8 0A FA 0B 46 0A DF 0A DF
11.38589 1 123 Rx d 8 0A FA 0B 2C 0A E7 0A E7
11.39602 1 123 Rx d 8 0B 14 0A F9 0A F3 0A F9
11.40601 1 123 Rx d 8 0B 0F 0B 22 0A F6 0A F4
11.41594 1 123 Rx d 8 0B 0F 0B 53 0A F4 0A FA
11.42604 1 123 Rx d 8 0B 22 0B 15 0B 03 0B 02
11.43611 1 123 Rx d 8 0B 2E 0A FD 0B 05 0B 00
11.44583 1 123 Rx d 8 0B 26 0B 88 0B 03 0B 0F
11.45611 1 123 Rx d 8 0B 2E 0B 47 0B 0F 0B 15
11.46601 1 123 Rx d 8 0B 3E 0B 22 0B 15 0B 20
11.476 1 123 Rx d 8 0B 3D 0B 7F 0B 14 0B 1B
11.48598 1 123 Rx d 8 0B 38 0B 6F 0B 25 0B 1D
11.49609 1 123 Rx d 8 0B 43 0B 4D 0B 28 0B 31
11.50593 1 123 Rx d 8 0B 49 0B 44 0B 2C 0B 31
11.51605 1 123 Rx d 8 0B 3B 0B B6 0B 2E 0B 38
11.52606 1 123 Rx d 8 0B 4D 0B 60 0B 31 0B 3E
11.53601 1 123 Rx d 8 0B 63 0B 47 0B 3E 0B 40
11.54606 1 123 Rx d 8 0B 4A 0B E3 0B 3D 0B 41
11.55608 1 123 Rx d 8 0B 53 0B 7B 0B 4A 0B 41
11.566 1 123 Rx d 8 0B 6C 0B 3E 0B 52 0B 52
11.57607 1 123 Rx d 8 0B 69 0B E8 0B 49 0B 60
11.586 1 123 Rx d 8 0B 67 0A 99 0B 53 0B 49
11.59604 1 123 Rx d 8 0B 79 0B A8 0B 56 0B 61
11.60599 1 123 Rx d 8 0B 75 0C 4F 0B 5D 0B 78
11.61614 1 123 Rx d 8 0B 7E 0B 3E 0B 60 0B 5E
11.62599 1 123 Rx d 8 0B 76 0C 61 0B 5D 0B 5D
11.63604 1 123 Rx d 8 0B 81 0B 79 0B 66 0B 85
11.64602 1 123 Rx d 8 0B 99 0B 7B 0B 75 0B 7F
11.656 1 123 Rx d 8 0B 9C 0B 85 0B 7E 0B 5E
11.66604 1 123 Rx d 8 0B AA 0B BD 0B 7B 0B C5
11.67611 1 123 Rx d 8 0B 99 0B 90 0B 79 0B 9C
11.68604 1 123 Rx d 8 0B A8 0B D6 0B 81 0B 49
11.69607 1 123 Rx d 8 0B AA 0B EF 0B 88 0B D7
11.70604 1 123 Rx d 8 0B B3 0B 7B 0B 98 0B C8
11.71606 1 123 Rx d 8 0B B9 0B F7 0B 9E 0B 2B
11.72602 1 123 Rx d 8 0B BC 0B AB 0B 9E 0C 20
11.7361 1 123 Rx d 8 0B C6 0B B6 0B 9E 0C 15
11.74587 1 123 Rx d 8 0B C5 0B DC 0B A2 0B 00
11.75616 1 123 Rx d 8 0B CE 0B CF 0B AE 0C 1D
11.76597 1 123 Rx d 8 0B C8 0B D7 0B B7 0C 18
11.776 1 123 Rx d 8 0B D6 0B F4 0B BF 0A FC
11.78604 1 123 Rx d 8 0B DF 0B E2 0B C0 0C 12
11.79605 1 123 Rx d 8 0B E6 0B E2 0B C0 0C 38
11.80599 1 123 Rx d 8 0B E5 0B F1 0B C9 0B 38
11.81608 1 123 Rx d 8 0B DF 0B E2 0B D1 0C 32
11.82606 1 123 Rx d 8 0B EB 0B F1 0B DA 0C 6A
11.83608 1 123 Rx d 8 0B F5 0B FB 0B E2 0B 61
11.84604 1 123 Rx d 8 0C 03 0C 01 0B DD 0B F1
11.85608 1 123 Rx d 8 0C 07 0C 03 0B E0 0C 90
11.86602 1 123 Rx d 8 0C 03 0C 0C 0B E5 0B A5
11.87615 1 123 Rx d 8 0C 0C 0C 06 0B EC 0B B6
11.88603 1 123 Rx d 8 0C 14 0C 11 0B F2 0C CE
11.89612 1 123 Rx d 8 0C 21 0C 1A 0B FA 0B E5
11.90608 1 123 Rx d 8 0C 2C 0C 15 0C 04 0B AA
11.91612 1 123 Rx d 8 0C 29 0C 27 0C 0C 0C B5
11.926 1 123 Rx d 8 0C 33 0C 35 0C 12 0B 2E
11.93611 1 123 Rx d 8 0C 3C 0C 3E 0C 12 0C B4
11.9461 1 123 Rx d 8 0C 41 0C 3C 0C 1A 0C 26
11.95603 1 123 Rx d 8 0C 3B 0C 39 0C 1A 0B B6
11.96626 1 123 Rx d 8 0C 3E 0C 3B 0C 20 0D 24
11.97617 1 123 Rx d 8 0C 47 0C 49 0C 2D 0C 1B
11.9859 1 123 Rx d 8 0C 50 0C 55 0C 2F 0B B0
11.99616 1 123 Rx d 8 0C 52 0C 55 0C 33 0D 07
12.00608 1 123 Rx d 8 0C 53 0C 59 0C 3E 0B A2
12.01605 1 123 Rx d 8 0C 55 0C 5E 0C 44 0C 24
12.02607 1 123 Rx d 8 0C 61 0C 56 0C 45 0C F2
12.03617 1 123 Rx d 8 0C 6A 0C 68 0C 4D 0B 9E
12.04603 1 123 Rx d 8 0C 62 0C 62 0C 4F 0C 91
12.0562 1 123 Rx d 8 0C 65 0C 67 0C 4A 0C 99
12.06615 1 123 Rx d 8 0C 67 0C 6E 0C 61 0B DA
12.07614 1 123 Rx d 8 0C 80 0C 71 0C 59 0C CB
12.08614 1 123 Rx d 8 0C 87 0C 7C 0C 67 0C 20
12.09629 1 123 Rx d 8 0C 8D 0C 7D 0C 62 0C 3C
12.10603 1 123 Rx d 8 0C 85 0C 7D 0C 5E 0C C6
12.11617 1 123 Rx d 8 0C 91 0C 88 0C 71 0C 12
12.12612 1 123 Rx d 8 0C 8E 0C 91 0C 77 0C 87
12.13614 1 123 Rx d 8 0C A6 0C 8E 0C 79 0C 8A
12.14607 1 123 Rx d 8 0C A2 0C 9C 0C 84 0C 53
12.15624 1 123 Rx d 8 0C A0 0C A5 0C 82 0C A8
12.16602 1 123 Rx d 8 0C B1 0C AE 0C 84 0C 82
12.1761 1 123 Rx d 8 0C AB 0C AE 0C 93 0C 84
12.18616 1 123 Rx d 8 0C B7 0C B5 0C 8E 0C AE
12.19613 1 123 Rx d 8 0C B5 0C BB 0C 9D 0C 91
12.20612 1 123 Rx d 8 0C BB 0C C8 0C 9F 0C A8
12.21618 1 123 Rx d 8 0C C9 0C CC 0C A0 0C AC
12.2261 1 123 Rx d 8 0C C9 0C D1 0C AE 0C AB
12.23616 1 123 Rx d 8 0C D5 0C D8 0C A8 0C B5
12.24613 1 123 Rx d 8 0C D2 0C D8 0C B8 0C BF
12.25611 1 123 Rx d 8 0C D2 0C DB 0C BD 0C C0
12.26615 1 123 Rx d 8 0C D4 0C E6 0C C3 0C C8
12.27618 1 123 Rx d 8 0C DA 0C E9 0C CE 0C CB
12.28596 1 123 Rx d 8 0C E7 0C E9 0C C9 0C D1
12.29621 1 123 Rx d 8 0C F8 0C F0 0C CE 0C D7
12.30608 1 123 Rx d 8 0C FB 0C F6 0C D5 0C DD
12.31609 1 123 Rx d 8 0D 00 0D 01 0C D7 0C E4
12.32615 1 123 Rx d 8 0C FE 0D 04 0C DE 0C ED
12.33613 1 123 Rx d 8 0D 09 0D 09 0C E7 0C EC
12.34609 1 123 Rx d 8 0D 0D 0D 0D 0C EA 0C F3
12.35626 1 123 Rx d 8 0D 1E 0D 09 0C F5 0C F6
12.3661 1 123 Rx d 8 0D 22 0D 19 0C FB 0C FD
12.37613 1 123 Rx d 8 0D 21 0D 27 0C F9 0D 07
12.38613 1 123 Rx d 8 0D 30 0D 2E 0D 07 0D 0A
12.39617 1 123 Rx d 8 0D 27 0D 2E 0D 06 0D 12
12.40608 1 123 Rx d 8 0D 38 0D 38 0D 0D 0D 16
12.41625 1 123 Rx d 8 0D 33 0D 3C 0D 18 0D 1C
12.4261 1 123 Rx d 8 0D 3E 0D 44 0D 1F 0D 27
12.43615 1 123 Rx d 8 0D 41 0D 44 0D 1F 0D 2E
12.44616 1 123 Rx d 8 0D 42 0D 4B 0D 2B 0D 30
12.45624 1 123 Rx d 8 0D 53 0D 5A 0D 28 0D 39
12.46612 1 123 Rx d 8 0D 54 0D 51 0D 31 0D 39
12.47625 1 123 Rx d 8 0D 56 0D 59 0D 38 0D 41
12.48622 1 123 Rx d 8 0D 54 0D 5F 0D 3C 0D 45
12.49611 1 123 Rx d 8 0D 56 0D 5C 0D 45 0D 48
12.50616 1 123 Rx d 8 0D 66 0D 6B 0D 44 0D 4E
12.51627 1 123 Rx d 8 0D 71 0D 6F 0D 4A 0D 57
12.52597 1 123 Rx d 8 0D 74 0D 74 0D 4B 0D 57
12.53622 1 123 Rx d 8 0D 77 0D 74 0D 4D 0D 5F
12.54617 1 123 Rx d 8 0D 7C 0D 77 0D 57 0D 62
12.55615 1 123 Rx d 8 0D 80 0D 80 0D 5A 0D 63
12.56621 1 123 Rx d 8 0D 91 0D 7F 0D 5F 0D 6B
12.57626 1 123 Rx d 8 0D 94 0D 83 0D 68 0D 73
12.58612 1 123 Rx d 8 0D 92 0D 97 0D 6E 0D 74
12.59626 1 123 Rx d 8 0D A4 0D A1 0D 73 0D 7A
12.60624 1 123 Rx d 8 0D 9E 0D A1 0D 77 0D 82
12.61618 1 123 Rx d 8 0D A3 0D A7 0D 79 0D 86
12.6262 1 123 Rx d 8 0D A9 0D AA 0D 7D 0D 8F
12.63623 1 123 Rx d 8 0D A6 0D B2 0D 8E 0D 98
12.64617 1 123 Rx d 8 0D B7 0D BA 0D 91 0D 9B
12.65632 1 123 Rx d 8 0D B5 0D C0 0D 9D 0D A0
12.6662 1 123 Rx d 8 0D C6 0D C9 0D 9B 0D A6
12.67625 1 123 Rx d 8 0D C4 0D C1 0D 9B 0D A7
12.68613 1 123 Rx d 8 0D C6 0D C7 0D A3 0D B1
12.69626 1 123 Rx d 8 0D C7 0D D0 0D AC 0D B4
12.70619 1 123 Rx d 8 0D C7 0D D0 0D BA 0D B7
12.71624 1 123 Rx d 8 0D D9 0D DF 0D BA 0D C1
12.72624 1 123 Rx d 8 0D DE 0D E2 0D BB 0D C4
12.73621 1 123 Rx d 8 0D E4 0D E5 0D BA 0D CA
12.74619 1 123 Rx d 8 0D E9 0D E4 0D BB 0D D3
12.75626 1 123 Rx d 8 0D F0 0D E9 0D C9 0D D3
12.76616 1 123 Rx d 8 0D F8 0D F2 0D D0 0D D9
12.77623 1 123 Rx d 8 0E 01 0D F0 0D D6 0D DC
12.7862 1 123 Rx d 8 0E 05 0D FC 0D DF 0D E4
12.79617 1 123 Rx d 8 0E 0E 0E 10 0D DF 0D EA
12.80618 1 123 Rx d 8 0E 16 0E 11 0D E7 0D EF
12.81626 1 123 Rx d 8 0E 0E 0E 14 0D EA 0D F9
12.82605 1 123 Rx d 8 0E 19 0E 19 0D F0 0D FC
12.83626 1 123 Rx d 8 0E 14 0E 1A 0D F9 0E 07
12.84619 1 123 Rx d 8 0E 22 0E 25 0E 01 0E 0A
12.85618 1 123 Rx d 8 0E 28 0E 2E 0E 02 0E 0D
12.86629 1 123 Rx d 8 0E 2E 0E 39 0E 08 0E 14
12.87624 1 123 Rx d 8 0E 39 0E 39 0E 0B 0E 17
12.88618 1 123 Rx d 8 0E 34 0E 31 0E 17 0E 1F
12.89627 1 123 Rx d 8 0E 37 0E 3F 0E 1C 0E 1F
12.90618 1 123 Rx d 8 0E 39 0E 3C 0E 20 0E 28
12.91623 1 123 Rx d 8 0E 45 0E 4E 0E 24 0E 2B
12.92622 1 123 Rx d 8 0E 4F 0E 51 0E 22 0E 30
12.93627 1 123 Rx d 8 0E 51 0E 52 0E 2B 0E 39
12.94618 1 123 Rx d 8 0E 57 0E 52 0E 2E 0E 3D
12.95633 1 123 Rx d 8 0E 5D 0E 55 0E 34 0E 45
12.96623 1 123 Rx d 8 0E 63 0E 5B 0E 39 0E 42
12.97625 1 123 Rx d 8 0E 72 0E 5F 0E 3D 0E 4B
12.98628 1 123 Rx d 8 0E 6F 0E 69 0E 48 0E 51
12.99632 1 123 Rx d 8 0E 77 0E 7A 0E 4E 0E 52
13.00623 1 123 Rx d 8 0E 7B 0E 7B 0E 51 0E 62
13.0163 1 123 Rx d 8 0E 78 0E 80 0E 54 0E 62
13.0263 1 123 Rx d 8 0E 84 0E 87 0E 58 0E 68
13.03623 1 123 Rx d 8 0E 86 0E 8A 0E 60 0E 6F
13.04623 1 123 Rx d 8 0E 8C 0E 90 0E 6B 0E 75
13.05633 1 123 Rx d 8 0E 8C 0E 98 0E 71 0E 7B
13.06607 1 123 Rx d 8 0E 9D 0E A6 0E 78 0E 81
13.07636 1 123 Rx d 8 0E 92 0E A0 0E 77 0E 81
13.08628 1 123 Rx d 8 0E AA 0E A3 0E 7E 0E 89
13.09644 1 123 Rx d 8 0E 98 0E A3 0E 83 0E 87
13.1063 1 123 Rx d 8 0E 9B 0E A9 0E 8A 0E 8F
13.11637 1 123 Rx d 8 0E D8 0E B6 0E 8D 0E 93
13.12621 1 123 Rx d 8 0E 87 0E BB 0E 92 0E A0
13.13633 1 123 Rx d 8 0E F1 0E BB 0E 92 0E A3
13.14631 1 123 Rx d 8 0E CA 0E B9 0E 92 0E A7
13.15622 1 123 Rx d 8 0E A7 0E C5 0E A0 0E A9
13.1663 1 123 Rx d 8 0F 3A 0E C5 0E A1 0E A7
13.17635 1 123 Rx d 8 0E 95 0E CD 0E AF 0E B2
13.18622 1 123 Rx d 8 0F 14 0E E2 0E B3 0E B8
13.19637 1 123 Rx d 8 0F 3A 0E E4 0E B5 0E BE
13.20625 1 123 Rx d 8 0E 78 0E EA 0E BC 0E C5
13.21631 1 123 Rx d 8 0F C2 0E F0 0E B9 0E C5
13.22627 1 123 Rx d 8 0E 7E 0E F3 0E C5 0E CD
13.23638 1 123 Rx d 8 0F 4F 0E F7 0E CE 0E D5
13.24628 1 123 Rx d 8 0F 72 0E FF 0E D0 0E DE
13.25649 1 123 Rx d 8 0E 4E 0F 14 0E DF 0E E4
13.26631 1 123 Rx d 8 10 00 0F 09 0E D5 0E E1
13.27628 1 123 Rx d 8 0E 48 0F 0C 0E E1 0E EB
13.2863 1 123 Rx d 8 0F 96 0F 0F 0E E8 0E E8
13.29634 1 123 Rx d 8 0F 90 0F 09 0E EA 0E F1
13.30624 1 123 Rx d 8 0E 58 0F 22 0E FA 0E FC
13.31634 1 123 Rx d 8 10 23 0F 25 0E EE 0E FA
13.32626 1 123 Rx d 8 0E FC 0F 22 0E F4 0F 03
13.33631 1 123 Rx d 8 0F 26 0F 1F 0E F1 0F 08
13.34627 1 123 Rx d 8 10 15 0F 2E 0E EE 0F 0B
13.35638 1 123 Rx d 8 0E 63 0F 2C 0F 0E 0F 11
13.36616 1 123 Rx d 8 10 40 0F 34 0E FA 0F 16
13.37635 1 123 Rx d 8 0F 41 0F 46 0F 0C 0F 1D
13.38635 1 123 Rx d 8 0F 25 0F 51 0F 26 0F 25
13.39631 1 123 Rx d 8 10 3A 0F 4F 0E F4 0F 2C
13.40635 1 123 Rx d 8 0E 62 0F 5D 0F 49 0F 34
13.41632 1 123 Rx d 8 10 58 0F 57 0E EA 0F 38
13.42627 1 123 Rx d 8 0E EB 0F 5A 0F 3A 0F 3E
13.43639 1 123 Rx d 8 0F 51 0F 6C 0F 51 0F 43
13.44626 1 123 Rx d 8 10 68 0F 76 0E DE 0F 49
13.45631 1 123 Rx d 8 0E 84 0F 6F 0F A5 0F 54
13.46632 1 123 Rx d 8 10 3A 0F 73 0E F4 0F 55
13.47639 1 123 Rx d 8 0F 63 0F 70 0F 73 0F 54
13.48627 1 123 Rx d 8 0E FF 0F 85 0F 49 0F 5D
13.49639 1 123 Rx d 8 10 A5 0F 8A 0F 0F 0F 5E
13.50634 1 123 Rx d 8 0E 9E 0F 85 0F D9 0F 6D
13.51639 1 123 Rx d 8 10 6A 0F 8A 0E BE 0F 6D
13.52637 1 123 Rx d 8 0F F4 0F 81 0F CA 0F 75
13.5364 1 123 Rx d 8 0F 2E 0F 9C 0F 3A 0F 70
13.54631 1 123 Rx d 8 10 E4 0F 90 0F 3A 0F 75
13.55637 1 123 Rx d 8 0E DB 0F A4 10 17 0F 82
13.56632 1 123 Rx d 8 10 5C 0F B4 0E E5 0F 84
13.5763 1 123 Rx d 8 0F B3 0F AE 0F D1 0F 92
13.58634 1 123 Rx d 8 0F 92 0F C2 0F 81 0F 92
13.59643 1 123 Rx d 8 10 41 0F B7 0F 37 0F 93
13.60626 1 123 Rx d 8 0F 2B 0F C0 10 17 0F A1
13.61644 1 123 Rx d 8 10 1E 0F CE 0E ED 0F A7
13.62637 1 123 Rx d 8 0F 8C 0F D6 10 02 0F AE
13.63633 1 123 Rx d 8 0F A8 0F D1 0F 7C 0F B1
13.64639 1 123 Rx d 8 0F FF 0F CD 0F 8C 0F B0
13.65643 1 123 Rx d 8 0F 6A 0F D1 10 0E 0F B7
13.66627 1 123 Rx d 8 10 20 0F D7 0F 28 0F BD
13.67642 1 123 Rx d 8 0F A1 0F E6 10 29 0F C2
13.68644 1 123 Rx d 8 0F E6 0F E8 0F 3B 0F C8
13.69633 1 123 Rx d 8 0F E2 0F E2 0F CB 0F CE
13.70637 1 123 Rx d 8 0F BC 0F E6 0F F8 0F D4
13.71646 1 123 Rx d 8 10 0C 0F E8 0F 35 0F D7
13.72628 1 123 Rx d 8 0F BD 0F E8 10 64 0F D4
13.73643 1 123 Rx d 8 0F F8 0F FD 0F 60 0F DA
13.74639 1 123 Rx d 8 0F EB 10 05 10 03 0F E0
13.75643 1 123 Rx d 8 0F EF 10 03 10 20 0F E6
13.76638 1 123 Rx d 8 10 0C 10 09 0F 84 0F F1
13.77645 1 123 Rx d 8 0F E8 10 09 10 6A 0F EF
13.78636 1 123 Rx d 8 10 0C 10 14 0F 57 0F F5
13.7964 1 123 Rx d 8 0F F7 10 17 10 46 0F F8
13.80638 1 123 Rx d 8 10 17 10 27 0F C2 0F FF
13.81637 1 123 Rx d 8 10 12 10 1B 0F E8 10 03
13.82637 1 123 Rx d 8 10 0F 10 24 10 67 10 06
13.83645 1 123 Rx d 8 10 12 10 20 0F 79 10 06
13.84629 1 123 Rx d 8 10 15 10 26 10 70 10 08
13.85639 1 123 Rx d 8 10 29 10 2D 0F CD 10 12
13.86639 1 123 Rx d 8 10 24 10 2C 10 08 10 18
13.87639 1 123 Rx d 8 10 32 10 2C 10 3A 10 18
13.88634 1 123 Rx d 8 10 36 10 36 0F D4 10 21
13.89643 1 123 Rx d 8 10 41 10 2D 10 49 10 1A
13.90638 1 123 Rx d 8 10 44 10 36 0F F4 10 20
13.91647 1 123 Rx d 8 10 47 10 4D 10 38 10 2C
13.92639 1 123 Rx d 8 10 4A 10 4F 10 1D 10 2F
13.93637 1 123 Rx d 8 10 4D 10 55 10 29 10 38
13.94641 1 123 Rx d 8 10 56 10 50 10 33 10 35
13.95641 1 123 Rx d 8 10 4F 10 58 10 21 10 3A
13.96631 1 123 Rx d 8 10 56 10 5E 10 4F 10 41
13.97649 1 123 Rx d 8 10 5E 10 70 10 2A 10 49
13.98636 1 123 Rx d 8 10 68 10 67 10 58 10 50
13.99641 1 123 Rx d 8 10 6E 10 67 10 49 10 4D
14.00642 1 123 Rx d 8 10 68 10 6D 10 49 10 50
14.01646 1 123 Rx d 8 10 6E 10 6B 10 5E 10 52
14.02636 1 123 Rx d 8 10 7C 10 7C 10 53 10 5B
14.03649 1 123 Rx d 8 10 84 10 7B 10 64 10 61
14.04641 1 123 Rx d 8 10 8A 10 7E 10 61 10 64
14.0564 1 123 Rx d 8 10 91 10 84 10 6A 10 6B
14.06643 1 123 Rx d 8 10 96 10 8A 10 68 10 67
14.07649 1 123 Rx d 8 10 9A 10 84 10 6B 10 71
14.08637 1 123 Rx d 8 10 A2 10 9A 10 75 10 75
14.09644 1 123 Rx d 8 10 AE 10 A2 10 79 10 7E
14.10642 1 123 Rx d 8 10 A8 10 A8 10 85 10 82
14.11643 1 123 Rx d 8 10 B7 10 AC 10 84 10 88
14.12643 1 123 Rx d 8 10 A2 10 AB 10 91 10 8B
14.13654 1 123 Rx d 8 10 B9 10 AE 10 91 10 93
14.14634 1 123 Rx d 8 10 AB 10 BF 10 97 10 99
14.15654 1 123 Rx d 8 10 CC 10 C2 10 9D 10 9F
14.16649 1 123 Rx d 8 10 BA 10 BF 10 A2 10 A0
14.1764 1 123 Rx d 8 10 C2 10 C9 10 AC 10 A5
14.18645 1 123 Rx d 8 10 C8 10 C3 10 B3 10 A6
14.19651 1 123 Rx d 8 10 D7 10 D5 10 B1 10 B1
14.20642 1 123 Rx d 8 10 DE 10 DA 10 B6 10 B4
14.21651 1 123 Rx d 8 10 DD 10 D1 10 B3 10 BC
14.22663 1 123 Rx d 8 10 DD 10 E0 10 BA 10 BF
14.23644 1 123 Rx d 8 10 F2 10 D8 10 C2 10 C5
14.24642 1 123 Rx d 8 10 F1 10 E1 10 C6 10 C6
14.25648 1 123 Rx d 8 11 00 10 F4 10 C3 10 CC
14.26643 1 123 Rx d 8 10 F8 11 03 10 D1 10 D1
14.27657 1 123 Rx d 8 10 FA 11 00 10 D5 10 DE
14.28643 1 123 Rx d 8 11 01 11 0A 10 DE 10 E6
14.29647 1 123 Rx d 8 10 FD 11 07 10 E3 10 E6
14.30647 1 123 Rx d 8 11 10 11 0D 10 DE 10 EF
14.31652 1 123 Rx d 8 11 0A 11 1E 10 E7 10 F1
14.32641 1 123 Rx d 8 11 26 11 18 10 F2 10 FE
14.33646 1 123 Rx d 8 11 0D 11 21 10 FA 10 FE
14.34648 1 123 Rx d 8 11 10 11 16 11 04 11 06
14.35645 1 123 Rx d 8 11 21 11 24 11 03 11 07
14.36642 1 123 Rx d 8 11 29 11 2D 11 07 11 03
14.37651 1 123 Rx d 8 11 38 11 33 11 07 11 13
14.38642 1 123 Rx d 8 11 38 11 30 11 09 11 16
14.3965 1 123 Rx d 8 11 3E 11 38 11 10 11 1E
14.40645 1 123 Rx d 8 11 44 11 30 11 10 11 22
14.41647 1 123 Rx d 8 11 42 11 3E 11 19 11 24
14.42648 1 123 Rx d 8 11 59 11 57 11 1B 11 24
14.43655 1 123 Rx d 8 11 50 11 51 11 22 11 2F
14.44632 1 123 Rx d 8 11 51 11 5C 11 29 11 38
14.45653 1 123 Rx d 8 11 50 11 56 11 2A 11 41
14.46653 1 123 Rx d 8 11 57 11 62 11 3B 11 44
14.47643 1 123 Rx d 8 11 5C 11 6B 11 3C 11 48
14.48651 1 123 Rx d 8 11 73 11 73 11 3C 11 4B
14.49652 1 123 Rx d 8 11 67 11 68 11 41 11 4E
14.50641 1 123 Rx d 8 11 5F 11 6E 11 41 11 53
14.51658 1 123 Rx d 8 11 6B 11 6E 11 4D 11 5C
14.52647 1 123 Rx d 8 11 7D 11 83 11 53 11 5C
14.53651 1 123 Rx d 8 11 85 11 82 11 5C 11 60
14.5465 1 123 Rx d 8 11 88 11 7F 11 51 11 67
14.55656 1 123 Rx d 8 11 80 11 7D 11 59 11 68
14.56646 1 123 Rx d 8 11 91 11 83 11 53 11 79
14.57657 1 123 Rx d 8 11 94 11 89 11 5D 11 70
14.58649 1 123 Rx d 8 11 A0 11 A5 11 68 11 77
14.5965 1 123 Rx d 8 11 A3 11 9D 11 6B 11 79
14.6065 1 123 Rx d 8 11 9D 11 AC 11 79 11 7F
14.61655 1 123 Rx d 8 11 A3 11 AC 11 77 11 8F
14.62643 1 123 Rx d 8 11 97 11 AF 11 76 11 8E
14.63656 1 123 Rx d 8 11 B4 11 B2 11 80 11 94
14.64654 1 123 Rx d 8 11 B7 11 BE 11 82 11 9B
14.65653 1 123 Rx d 8 11 C4 11 B7 11 91 11 9D
14.66652 1 123 Rx d 8 11 AE 11 C6 11 97 11 A3
14.67664 1 123 Rx d 8 11 B1 11 BA 11 8F 11 A8
14.68644 1 123 Rx d 8 11 C6 11 CC 11 A2 11 A5
14.69659 1 123 Rx d 8 11 CF 11 D0 11 9B 11 B4
14.70655 1 123 Rx d 8 11 D6 11 C7 11 A2 11 B1
14.71648 1 123 Rx d 8 11 D0 11 D5 11 AB 11 B8
14.72656 1 123 Rx d 8 11 E9 11 C9 11 A2 11 BD
14.73662 1 123 Rx d 8 11 E3 11 E4 11 AE 11 BE
14.74647 1 123 Rx d 8 11 F5 11 E6 11 B5 11 C6
14.7566 1 123 Rx d 8 11 EC 11 F6 11 BA 11 C7
14.76651 1 123 Rx d 8 11 ED 11 EA 11 C6 11 CF
14.7765 1 123 Rx d 8 11 F0 11 F6 11 C0 11 D5
14.78656 1 123 Rx d 8 11 F2 11 F8 11 C6 11 D8
14.79665 1 123 Rx d 8 12 02 12 04 11 D2 11 E6
14.8065 1 123 Rx d 8 12 07 12 0E 11 D3 11 E7
14.81666 1 123 Rx d 8 12 0D 12 05 11 E0 11 E6
14.82652 1 123 Rx d 8 11 FE 12 0D 11 E3 11 F2
14.83655 1 123 Rx d 8 12 07 12 0D 11 E1 11 F2
14.84656 1 123 Rx d 8 12 16 12 1E 11 EA 11 F5
14.85658 1 123 Rx d 8 12 1C 12 1E 11 F3 11 FF
14.8665 1 123 Rx d 8 12 2D 12 1F 11 F9 11 FE
14.87655 1 123 Rx d 8 12 2D 12 27 11 F8 12 02
14.88655 1 123 Rx d 8 12 40 12 15 11 F3 12 0D
14.89655 1 123 Rx d 8 12 30 12 28 11 F9 12 0B
14.90648 1 123 Rx d 8 12 40 12 30 12 04 12 15
14.91661 1 123 Rx d 8 12 37 12 53 12 0D 12 1B
14.92649 1 123 Rx d 8 12 3F 12 46 12 19 12 1B
14.93659 1 123 Rx d 8 12 42 12 53 12 19 12 28
14.94656 1 123 Rx d 8 12 45 12 40 12 1B 12 27
14.95658 1 123 Rx d 8 12 56 12 56 12 1F 12 3F
14.96654 1 123 Rx d 8 12 5D 12 5C 12 27 12 36
14.97662 1 123 Rx d 8 12 59 12 60 12 30 12 3F
14.98651 1 123 Rx d 8 12 4E 12 68 12 34 12 3C
14.99662 1 123 Rx d 8 12 62 12 5F 12 3D 12 3F
15.00659 1 123 Rx d 8 12 66 12 69 12 43 12 4C
15.01651 1 123 Rx d 8 12 81 12 63 12 42 12 53
15.02656 1 123 Rx d 8 12 6C 12 72 12 48 12 56
15.03665 1 123 Rx d 8 12 86 12 6E 12 43 12 57
15.04651 1 123 Rx d 8 12 78 12 74 12 45 12 57
15.05666 1 123 Rx d 8 12 91 12 86 12 51 12 5D
15.06655 1 123 Rx d 8 12 95 12 91 12 54 12 68
15.07661 1 123 Rx d 8 12 92 12 94 12 63 12 6C
15.08659 1 123 Rx d 8 12 8E 12 9B 12 68 12 7E
15.09661 1 123 Rx d 8 12 84 12 9B 12 68 12 74
15.10655 1 123 Rx d 8 12 9A 12 9E 12 6E 12 77
15.11666 1 123 Rx d 8 12 A7 12 B0 12 69 12 81
15.12656 1 123 Rx d 8 12 B8 12 9D 12 78 12 8C
15.13673 1 123 Rx d 8 12 9E 12 B0 12 81 12 9B
15.14666 1 123 Rx d 8 12 AD 12 A9 12 8B 12 8E
15.15661 1 123 Rx d 8 12 AF 12 C1 12 94 12 8E
15.16655 1 123 Rx d 8 12 B9 12 BB 12 8E 12 8E
15.1767 1 123 Rx d 8 12 BF 12 BB 12 8E 12 9A
15.18663 1 123 Rx d 8 12 CC 12 B6 12 91 12 B2
15.19665 1 123 Rx d 8 12 D8 12 B5 12 94 12 B8
15.20659 1 123 Rx d 8 12 CC 12 CA 12 9B 12 AA
15.21672 1 123 Rx d 8 12 DE 12 E4 12 A0 12 A9
15.22652 1 123 Rx d 8 12 D9 12 E5 12 B0 12 A7
15.23667 1 123 Rx d 8 12 EB 12 E7 12 AC 12 BB
15.24666 1 123 Rx d 8 12 D8 12 E4 12 B2 12 CC
15.25658 1 123 Rx d 8 12 E7 12 E5 12 BB 12 D2
15.26665 1 123 Rx d 8 12 E4 12 FC 12 BC 12 D5
15.2767 1 123 Rx d 8 12 F6 12 F3 12 C4 12 CD
15.28645 1 123 Rx d 8 12 ED 12 FA 12 CC 12 CC
15.29668 1 123 Rx d 8 12 F9 12 F6 12 C9 12 D8
15.30666 1 123 Rx d 8 12 FF 13 01 12 D6 12 E1
15.31663 1 123 Rx d 8 13 0A 13 01 12 DF 12 E5
15.32665 1 123 Rx d 8 13 0E 13 04 12 DF 12 F3
15.33674 1 123 Rx d 8 13 14 13 05 12 E7 12 E4
15.34656 1 123 Rx d 8 13 20 13 05 12 DC 12 EB
15.35679 1 123 Rx d 8 13 1D 13 1A 12 E5 12 F3
15.36662 1 123 Rx d 8 13 2C 13 26 12 E8 12 FC
15.37662 1 123 Rx d 8 13 25 13 29 12 F3 13 01
15.38662 1 123 Rx d 8 13 2E 13 29 13 05 13 05
15.39667 1 123 Rx d 8 13 26 13 31 13 08 13 05
15.40658 1 123 Rx d 8 13 38 13 3A 13 0A 13 0D
15.41662 1 123 Rx d 8 13 3D 13 46 13 0B 13 17
15.4266 1 123 Rx d 8 13 42 13 3A 13 0A 13 26
15.43664 1 123 Rx d 8 13 34 13 42 13 1C 13 20
15.44659 1 123 Rx d 8 13 4B 13 3F 13 25 13 23
15.45671 1 123 Rx d 8 13 4E 13 4E 13 29 13 1F
15.46659 1 123 Rx d 8 13 58 13 4B 13 2C 13 23
15.47671 1 123 Rx d 8 13 5B 13 4B 13 2B 13 34
15.48663 1 123 Rx d 8 13 66 13 51 13 2F 13 3D
15.49663 1 123 Rx d 8 13 67 13 55 13 31 13 42
15.50663 1 123 Rx d 8 13 6F 13 6A 13 37 13 3C
15.5167 1 123 Rx d 8 13 6F 13 6C 13 3A 13 3C
15.52658 1 123 Rx d 8 13 73 13 72 13 45 13 40
15.53672 1 123 Rx d 8 13 78 13 76 13 4B 13 52
15.54669 1 123 Rx d 8 13 70 13 7B 13 55 13 58
15.55661 1 123 Rx d 8 13 83 13 86 13 58 13 61
15.56666 1 123 Rx d 8 13 86 13 89 13 5B 13 63
15.57674 1 123 Rx d 8 13 8A 13 86 13 60 13 5E
15.58659 1 123 Rx d 8 13 87 13 8D 13 67 13 66
15.59676 1 123 Rx d 8 13 99 13 92 13 70 13 6D
15.60664 1 123 Rx d 8 13 98 13 99 13 7A 13 73
15.6167 1 123 Rx d 8 13 A4 13 90 13 7A 13 7B
15.6267 1 123 Rx d 8 13 A4 13 A1 13 78 13 7A
15.6367 1 123 Rx d 8 13 BB 13 98 13 7A 13 81
15.64661 1 123 Rx d 8 13 AE 13 AE 13 7D 13 84
15.65672 1 123 Rx d 8 13 BF 13 B3 13 89 13 83
15.66666 1 123 Rx d 8 13 B3 13 BC 13 8F 13 92
15.67667 1 123 Rx d 8 13 C5 13 BF 13 96 13 8F
15.68676 1 123 Rx d 8 13 BC 13 C5 13 98 13 9B
15.69675 1 123 Rx d 8 13 C8 13 CD 13 99 13 9E
15.70663 1 123 Rx d 8 13 CB 13 D3 13 A2 13 A7
15.71678 1 123 Rx d 8 13 D0 13 CB 13 A7 13 AA
15.72672 1 123 Rx d 8 13 CE 13 D1 13 B0 13 AD
15.73673 1 123 Rx d 8 13 DD 13 D6 13 B8 13 B5
15.74666 1 123 Rx d 8 13 E2 13 E3 13 BC 13 B1
15.75677 1 123 Rx d 8 13 E9 13 E3 13 BF 13 B8
15.76669 1 123 Rx d 8 13 EC 13 E5 13 C5 13 BF
15.77677 1 123 Rx d 8 14 00 13 E2 13 C5 13 C4
15.78675 1 123 Rx d 8 13 FC 13 E3 13 CA 13 CE
15.79667 1 123 Rx d 8 14 06 14 00 13 C7 13 CE
15.80671 1 123 Rx d 8 13 FA 13 FC 13 CD 13 D0
15.81676 1 123 Rx d 8 14 09 14 0C 13 DC 13 D6
15.82664 1 123 Rx d 8 14 08 14 0C 13 E2 13 E2
15.83683 1 123 Rx d 8 14 0C 14 12 13 EB 13 E8
15.84676 1 123 Rx d 8 14 18 14 1E 13 EE 13 F3
15.85673 1 123 Rx d 8 14 18 14 18 13 EC 13 F3
15.86672 1 123 Rx d 8 14 18 14 1E 13 F3 13 F6
15.87683 1 123 Rx d 8 14 20 14 20 13 FD 13 FC
15.88654 1 123 Rx d 8 14 2E 14 27 14 08 13 FD
15.89677 1 123 Rx d 8 14 2F 14 2C 14 0C 14 08
15.90672 1 123 Rx d 8 14 32 14 26 14 0C 14 08
15.9167 1 123 Rx d 8 14 44 14 32 14 0C 14 09
15.92672 1 123 Rx d 8 14 44 14 2F 14 0E 14 15
15.93671 1 123 Rx d 8 14 4D 14 47 14 14 14 14
15.94669 1 123 Rx d 8 14 46 14 47 14 1A 14 1D
15.95674 1 123 Rx d 8 14 4A 14 4F 14 20 14 24
15.96671 1 123 Rx d 8 14 4F 14 53 14 27 14 27
15.97674 1 123 Rx d 8 14 4F 14 53 14 2B 14 2B
15.9867 1 123 Rx d 8 14 5B 14 5F 14 31 14 32
15.99684 1 123 Rx d 8 14 5C 14 5E 14 38 14 38
16.00666 1 123 Rx d 8 14 5C 14 67 14 38 14 3D
16.01678 1 123 Rx d 8 14 64 14 67 14 44 14 46
16.02675 1 123 Rx d 8 14 73 14 6F 14 49 14 43
16.03673 1 123 Rx d 8 14 72 14 6D 14 50 14 41
16.04679 1 123 Rx d 8 14 79 14 72 14 4F 14 4D
16.0568 1 123 Rx d 8 14 87 14 75 14 50 14 4C
16.0667 1 123 Rx d 8 14 88 14 76 14 50 14 5B
16.0768 1 123 Rx d 8 14 90 14 8B 14 53 14 59
16.08677 1 123 Rx d 8 14 84 14 88 14 5B 14 5C
16.09673 1 123 Rx d 8 14 91 14 90 14 62 14 62
16.10676 1 123 Rx d 8 14 8E 14 97 14 6C 14 66
16.11689 1 123 Rx d 8 14 96 14 9F 14 6C 14 73
16.12659 1 123 Rx d 8 14 9C 14 AA 14 75 14 75
16.13685 1 123 Rx d 8 14 A2 14 A5 14 76 14 7E
16.14674 1 123 Rx d 8 14 99 14 A4 14 7B 14 7F
16.15676 1 123 Rx d 8 14 AE 14 A2 14 85 14 82
16.16677 1 123 Rx d 8 14 B3 14 B3 14 8A 14 82
16.17677 1 123 Rx d 8 14 B7 14 AD 14 93 14 8A
16.18673 1 123 Rx d 8 14 BA 14 B4 14 91 14 91
16.19683 1 123 Rx d 8 14 CB 14 B4 14 94 14 93
16.20678 1 123 Rx d 8 14 C6 14 B7 14 90 14 9A
16.21678 1 123 Rx d 8 14 D4 14 D2 14 96 14 96
16.2268 1 123 Rx d 8 14 C9 14 D1 14 9A 14 9C
16.23686 1 123 Rx d 8 14 D7 14 D8 14 A2 14 A5
16.24672 1 123 Rx d 8 14 CC 14 D7 14 B0 14 AD
16.25685 1 123 Rx d 8 14 DD 14 E2 14 B0 14 B6
16.26678 1 123 Rx d 8 14 E2 14 E8 14 B7 14 BA
16.27682 1 123 Rx d 8 14 E5 14 E8 14 B7 14 BC
16.28676 1 123 Rx d 8 14 DD 14 E3 14 C0 14 BC
16.29688 1 123 Rx d 8 14 F5 14 EE 14 C8 14 C8
16.30674 1 123 Rx d 8 14 F5 14 F5 14 D2 14 CC
16.31686 1 123 Rx d 8 14 FB 14 EC 14 D7 14 CF
16.32695 1 123 Rx d 8 15 04 14 FE 14 D5 14 D4
16.33673 1 123 Rx d 8 15 0D 14 F2 14 D4 14 D2
16.34684 1 123 Rx d 8 15 12 15 0F 14 D7 14 D7
16.35692 1 123 Rx d 8 15 12 15 0D 14 E0 14 E2
16.36671 1 123 Rx d 8 15 0D 15 17 14 E5 14 EB
16.37691 1 123 Rx d 8 15 1D 15 1A 14 EE 14 E9
16.3868 1 123 Rx d 8 15 10 15 1D 14 F1 14 F4
16.39679 1 123 Rx d 8 15 26 15 2F 14 F7 14 EF
16.40679 1 123 Rx d 8 15 23 15 1D 14 FE 15 00
16.41691 1 123 Rx d 8 15 20 15 2F 14 FD 15 04
16.42664 1 123 Rx d 8 15 2D 15 23 15 07 15 04
16.43684 1 123 Rx d 8 15 32 15 39 15 0C 15 07
16.44677 1 123 Rx d 8 15 3B 15 2F 15 15 15 06
16.45677 1 123 Rx d 8 15 3E 15 35 15 18 15 0D
16.4668 1 123 Rx d 8 15 52 15 33 15 18 15 17
16.47681 1 123 Rx d 8 15 4B 15 3E 15 13 15 1A
16.48674 1 123 Rx d 8 15 52 15 52 15 18 15 1D
16.49686 1 123 Rx d 8 15 4A 15 53 15 1D 15 20
16.50682 1 123 Rx d 8 15 59 15 55 15 26 15 20
16.51686 1 123 Rx d 8 15 4E 15 58 15 30 15 2F
16.52676 1 123 Rx d 8 15 5C 15 5F 15 33 15 2F
16.53689 1 123 Rx d 8 15 5B 15 64 15 39 15 3B
16.54675 1 123 Rx d 8 15 56 15 5F 15 38 15 3C
16.55685 1 123 Rx d 8 15 64 15 5C 15 3E 15 41
16.56687 1 123 Rx d 8 15 70 15 65 15 4A 15 42
16.57682 1 123 Rx d 8 15 71 15 65 15 4B 15 3F
16.58681 1 123 Rx d 8 15 70 15 6A 15 55 15 4A
16.59688 1 123 Rx d 8 15 7A 15 68 15 50 15 47
16.60679 1 123 Rx d 8 15 7D 15 68 15 52 15 55
16.6169 1 123 Rx d 8 15 83 15 7A 15 55 15 55
16.62683 1 123 Rx d 8 15 7A 15 7A 15 56 15 56
16.63683 1 123 Rx d 8 15 82 15 82 15 5E 15 56
16.64685 1 123 Rx d 8 15 7F 15 7D 15 64 15 5B
16.65694 1 123 Rx d 8 15 83 15 8C 15 65 15 65
16.66668 1 123 Rx d 8 15 8C 15 89 15 6B 15 6A
16.67695 1 123 Rx d 8 15 86 15 82 15 70 15 73
16.68683 1 123 Rx d 8 15 86 15 8B 15 73 15 71
16.69682 1 123 Rx d 8 15 9C 15 90 15 7A 15 71
16.70687 1 123 Rx d 8 15 9A 15 99 15 7C 15 6D
16.71687 1 123 Rx d 8 15 9A 15 88 15 80 15 71
16.72683 1 123 Rx d 8 15 A3 15 8E 15 7D 15 79
16.73693 1 123 Rx d 8 15 AE 15 8E 15 7F 15 79
16.74687 1 123 Rx d 8 15 BA 15 B1 15 82 15 7F
16.7569 1 123 Rx d 8 15 B2 15 B5 15 7F 15 7C
16.76689 1 123 Rx d 8 15 BD 15 BE 15 85 15 82
16.77694 1 123 Rx d 8 15 BA 15 B7 15 8B 15 85
16.78679 1 123 Rx d 8 15 C0 15 BD 15 96 15 8C
16.79696 1 123 Rx d 8 15 C7 15 C6 15 9C 15 97
16.8069 1 123 Rx d 8 15 C0 15 C1 15 A5 15 9C
16.8169 1 123 Rx d 8 15 BA 15 BE 15 9F 15 A3
16.82688 1 123 Rx d 8 15 CC 15 C0 15 A8 15 A2
16.83695 1 123 Rx d 8 15 C9 15 C4 15 AE 15 A2
16.84682 1 123 Rx d 8 15 D5 15 C3 15 B4 15 A9
16.85687 1 123 Rx d 8 15 DE 15 CF 15 B7 15 A5
16.86696 1 123 Rx d 8 15 ED 15 CE 15 B1 15 AF
16.87702 1 123 Rx d 8 15 E9 15 E0 15 AF 15 B7
16.88689 1 123 Rx d 8 15 E4 15 E4 15 B4 15 B1
16.897 1 123 Rx d 8 15 E6 15 E3 15 B8 15 BE
16.90671 1 123 Rx d 8 15 E6 15 E1 15 C9 15 BB
16.91698 1 123 Rx d 8 15 E9 15 ED 15 CB 15 C0
16.92688 1 123 Rx d 8 15 F3 15 F5 15 CF 15 C7
16.93686 1 123 Rx d 8 15 F0 15 F5 15 D1 15 CC
16.94686 1 123 Rx d 8 15 ED 15 F2 15 C9 15 D2
16.95694 1 123 Rx d 8 16 01 15 F5 15 D8 15 D2
16.96673 1 123 Rx d 8 15 FE 15 F8 15 E0 15 D1
16.97694 1 123 Rx d 8 16 06 15 F3 15 E9 15 D8
16.98691 1 123 Rx d 8 16 0F 15 FC 15 E7 15 D8
16.99688 1 123 Rx d 8 16 18 15 F6 15 E3 15 DD
17.00693 1 123 Rx d 8 16 16 16 10 15 E0 15 E4
17.0169 1 123 Rx d 8 16 10 16 10 15 E1 15 E0
17.02685 1 123 Rx d 8 16 13 16 15 15 EA 15 E9
17.037 1 123 Rx d 8 16 15 16 16 15 F2 15 EA
17.04689 1 123 Rx d 8 16 1C 16 1F 15 F9 15 F0
17.05693 1 123 Rx d 8 16 21 16 24 15 FB 15 F3
17.06686 1 123 Rx d 8 16 1B 16 1C 15 FF 15 FC
17.07699 1 123 Rx d 8 16 15 16 16 15 FE 15 FF
17.08687 1 123 Rx d 8 16 2B 16 1E 16 09 15 FE
17.09692 1 123 Rx d 8 16 2E 16 28 16 10 16 09
17.10694 1 123 Rx d 8 16 3C 16 2D 16 19 16 09
17.11694 1 123 Rx d 8 16 4A 16 2E 16 16 16 07
17.12691 1 123 Rx d 8 16 47 16 30 16 0F 16 09
17.13697 1 123 Rx d 8 16 48 16 3D 16 0F 16 10
17.14692 1 123 Rx d 8 16 39 16 3D 16 16 16 15
17.15698 1 123 Rx d 8 16 4A 16 42 16 1F 16 1E
17.16693 1 123 Rx d 8 16 45 16 4B 16 27 16 1C
17.17696 1 123 Rx d 8 16 56 16 59 16 27 16 1E
17.18693 1 123 Rx d 8 16 54 16 59 16 28 16 22
17.19703 1 123 Rx d 8 16 51 16 59 16 2E 16 2B
17.20674 1 123 Rx d 8 16 5A 16 51 16 34 16 36
17.21701 1 123 Rx d 8 16 65 16 62 16 3F 16 36
17.22697 1 123 Rx d 8 16 6C 16 5A 16 42 16 34
17.23693 1 123 Rx d 8 16 6C 16 63 16 47 16 37
17.24699 1 123 Rx d 8 16 83 16 5F 16 47 16 3A
17.25699 1 123 Rx d 8 16 77 16 6B 16 45 16 41
17.26693 1 123 Rx d 8 16 77 16 75 16 4B 16 4A
17.27705 1 123 Rx d 8 16 6B 16 6F 16 4D 16 48
17.28693 1 123 Rx d 8 16 78 16 71 16 53 16 4E
17.29698 1 123 Rx d 8 16 77 16 78 16 5A 16 4B
17.30695 1 123 Rx d 8 16 86 16 85 16 59 16 53
17.31701 1 123 Rx d 8 16 82 16 83 16 62 16 5D
17.32691 1 123 Rx d 8 16 74 16 7A 16 65 16 63
17.33711 1 123 Rx d 8 16 8E 16 83 16 6B 16 66
17.34693 1 123 Rx d 8 16 8E 16 86 16 6F 16 69
17.35696 1 123 Rx d 8 16 9A 16 82 16 72 16 5F
17.36692 1 123 Rx d 8 16 9A 16 83 16 75 16 60
17.37701 1 123 Rx d 8 16 A3 16 82 16 72 16 66
17.38696 1 123 Rx d 8 16 A3 16 97 16 75 16 6C
17.39701 1 123 Rx d 8 16 9B 16 9B 16 77 16 7C
17.40703 1 123 Rx d 8 16 A7 16 A1 16 78 16 74
17.41699 1 123 Rx d 8 16 A6 16 9E 16 7F 16 7A
17.42696 1 123 Rx d 8 16 AC 16 AA 16 83 16 75
17.43707 1 123 Rx d 8 16 B0 16 AF 16 88 16 7D
17.44679 1 123 Rx d 8 16 A9 16 AC 16 8E 16 8B
17.45704 1 123 Rx d 8 16 AC 16 A9 16 91 16 8F
17.46696 1 123 Rx d 8 16 BD 16 B2 16 98 16 8C
17.47695 1 123 Rx d 8 16 C0 16 B0 16 9B 16 8F
17.48697 1 123 Rx d 8 16 C1 16 AD 16 A0 16 8C
17.49701 1 123 Rx d 8 16 D2 16 AC 16 A3 16 95
17.50682 1 123 Rx d 8 16 CC 16 B8 16 A0 16 97
17.51702 1 123 Rx d 8 16 D0 16 C7 16 A0 16 9D
17.52702 1 123 Rx d 8 16 C4 16 C7 16 A3 16 9E
17.53697 1 123 Rx d 8 16 D3 16 CA 16 A6 16 A0
17.54704 1 123 Rx d 8 16 D0 16 CC 16 AD 16 A3
17.55705 1 123 Rx d 8 16 DB 16 DB 16 B0 16 AC
17.56692 1 123 Rx d 8 16 D8 16 D3 16 B8 16 AC
17.57708 1 123 Rx d 8 16 C9 16 D5 16 BD 16 BA
17.58696 1 123 Rx d 8 16 E7 16 D8 16 BA 16 B8
17.59703 1 123 Rx d 8 16 E5 16 DF 16 C1 16 B8
17.60698 1 123 Rx d 8 16 EE 16 D5 16 C7 16 B8
17.61716 1 123 Rx d 8 16 F3 16 DE 16 D0 16 BA
17.62696 1 123 Rx d 8 16 F8 16 D6 16 CD 16 BE
17.63702 1 123 Rx d 8 16 FB 16 F0 16 CA 16 C6
17.64703 1 123 Rx d 8 16 F2 16 F3 16 C7 16 C6
17.65701 1 123 Rx d 8 16 FF 16 F9 16 CC 16 C7
17.667 1 123 Rx d 8 16 F8 16 F5 16 D3 16 C9
17.6771 1 123 Rx d 8 17 04 16 FF 16 DC 16 D0
17.68697 1 123 Rx d 8 17 01 16 FF 16 DE 16 D6
17.69707 1 123 Rx d 8 16 F6 16 FF 16 E4 16 E1
17.70702 1 123 Rx d 8 17 07 16 FB 16 E1 16 E1
17.71705 1 123 Rx d 8 17 0E 17 08 16 EA 16 DF
17.727 1 123 Rx d 8 17 16 17 04 16 F0 16 E1
17.7371 1 123 Rx d 8 17 16 17 07 16 F6 16 E4
17.74685 1 123 Rx d 8 17 29 16 FF 16 F8 16 E5
17.75709 1 123 Rx d 8 17 20 17 19 16 F3 16 EB
17.76712 1 123 Rx d 8 17 22 17 1D 16 F2 16 F2
17.77701 1 123 Rx d 8 17 1D 17 20 16 F5 16 F0
17.78708 1 123 Rx d 8 17 26 17 1F 16 F6 16 F6
17.79708 1 123 Rx d 8 17 1F 17 1F 17 01 16 F8
17.80702 1 123 Rx d 8 17 2D 17 2B 17 05 16 FE
17.81711 1 123 Rx d 8 17 23 17 29 17 0B 17 04
17.82699 1 123 Rx d 8 17 26 17 29 17 0B 17 0A
17.83705 1 123 Rx d 8 17 39 17 30 17 0B 17 08
17.84707 1 123 Rx d 8 17 37 17 30 17 10 17 0B
17.85711 1 123 Rx d 8 17 40 17 2B 17 1A 17 0D
17.86696 1 123 Rx d 8 17 4B 17 31 17 1D 17 13
17.87715 1 123 Rx d 8 17 48 17 37 17 1A 17 11
17.88705 1 123 Rx d 8 17 48 17 46 17 17 17 19
17.89702 1 123 Rx d 8 17 42 17 46 17 17 17 17
17.9071 1 123 Rx d 8 17 4B 17 4B 17 1C 17 20
17.91714 1 123 Rx d 8 17 4C 17 4C 17 28 17 20
17.92707 1 123 Rx d 8 17 54 17 58 17 2B 17 28
17.9371 1 123 Rx d 8 17 4E 17 52 17 2E 17 2D
17.9471 1 123 Rx d 8 17 43 17 4E 17 30 17 31
17.95709 1 123 Rx d 8 17 5D 17 55 17 30 17 39
17.96704 1 123 Rx d 8 17 60 17 60 17 39 17 37
17.97714 1 123 Rx d 8 17 66 17 55 17 3F 17 34
17.98687 1 123 Rx d 8 17 75 17 5B 17 46 17 3A
17.99714 1 123 Rx d 8 17 71 17 5A 17 40 17 39
18.00705 1 123 Rx d 8 17 75 17 77 17 42 17 40
18.01699 1 123 Rx d 8 17 66 17 74 17 3D 17 48
18.02706 1 123 Rx d 8 17 78 17 77 17 43 17 48
18.03713 1 123 Rx d 8 17 71 17 74 17 4C 17 4B
18.04691 1 123 Rx d 8 17 83 17 83 17 52 17 4E
18.05711 1 123 Rx d 8 17 7D 17 7D 17 57 17 52
18.06713 1 123 Rx d 8 17 6E 17 80 17 5E 17 5D
18.07705 1 123 Rx d 8 17 89 17 83 17 5A 17 60
18.0871 1 123 Rx d 8 17 86 17 86 17 68 17 61
18.09711 1 123 Rx d 8 17 90 17 7B 17 68 17 60
18.10702 1 123 Rx d 8 17 98 17 81 17 6C 17 61
18.11717 1 123 Rx d 8 17 99 17 84 17 6F 17 66
18.12703 1 123 Rx d 8 17 9C 17 9B 17 6B 17 6B
18.13712 1 123 Rx d 8 17 92 17 A1 17 6C 17 71
18.14709 1 123 Rx d 8 17 A3 17 9C 17 71 17 71
18.15713 1 123 Rx d 8 17 9E 17 A3 17 75 17 75
18.16706 1 123 Rx d 8 17 AD 17 AF 17 7B 17 78
18.17712 1 123 Rx d 8 17 A9 17 AD 17 80 17 83
18.18712 1 123 Rx d 8 17 99 17 A9 17 87 17 86
18.19711 1 123 Rx d 8 17 B8 17 AC 17 8A 17 8D
18.20714 1 123 Rx d 8 17 B3 17 B0 17 93 17 89
18.21716 1 123 Rx d 8 17 BC 17 A9 17 95 17 89
18.22705 1 123 Rx d 8 17 C4 17 B0 17 98 17 8C
18.23718 1 123 Rx d 8 17 C7 17 AC 17 99 17 90
18.24708 1 123 Rx d 8 17 CD 17 C8 17 96 17 96
18.2571 1 123 Rx d 8 17 C1 17 C7 17 99 17 9B
18.2671 1 123 Rx d 8 17 CB 17 CA 17 9B 17 99
18.27719 1 123 Rx d 8 17 C7 17 CB 17 A1 17 9F
18.28706 1 123 Rx d 8 17 D4 17 DA 17 A6 17 A6
18.2972 1 123 Rx d 8 17 D3 17 D0 17 AD 17 A9
18.30719 1 123 Rx d 8 17 CB 17 D3 17 B3 17 B6
18.3171 1 123 Rx d 8 17 E5 17 D7 17 B5 17 B2
18.32721 1 123 Rx d 8 17 DD 17 DD 17 BC 17 B6
18.3372 1 123 Rx d 8 17 E2 17 D3 17 BE 17 B5
18.34708 1 123 Rx d 8 17 ED 17 D4 17 C5 17 B3
18.35722 1 123 Rx d 8 17 F1 17 D9 17 C4 17 B9
18.36711 1 123 Rx d 8 17 FA 17 F3 17 C2 17 BE
18.37718 1 123 Rx d 8 17 EE 17 F6 17 C1 17 C2
18.38717 1 123 Rx d 8 17 F1 17 F3 17 C5 17 C5
18.3972 1 123 Rx d 8 17 F0 17 F1 17 C8 17 C5
18.40697 1 123 Rx d 8 17 FD 17 FF 17 D0 17 CD
18.41722 1 123 Rx d 8 17 F7 17 FC 17 D7 17 D3
18.42715 1 123 Rx d 8 17 F7 17 FA 17 DD 17 D9
18.43716 1 123 Rx d 8 18 05 17 FC 17 DA 17 DD
18.44714 1 123 Rx d 8 18 06 17 FD 17 E4 17 DD
18.45723 1 123 Rx d 8 18 0B 17 F7 17 EB 17 DA
18.46712 1 123 Rx d 8 18 1F 17 FD 17 F0 17 DA
18.47718 1 123 Rx d 8 18 1C 18 03 17 EE 17 E1
18.48716 1 123 Rx d 8 18 1C 18 17 17 EA 17 E2
18.49716 1 123 Rx d 8 18 14 18 18 17 EA 17 E8
18.50712 1 123 Rx d 8 18 1F 18 18 17 ED 17 EB
18.51724 1 123 Rx d 8 18 1F 18 1F 17 F7 17 EB
18.52696 1 123 Rx d 8 18 29 18 26 17 FD 17 F1
18.53722 1 123 Rx d 8 18 1D 18 20 18 00 17 F9
18.54713 1 123 Rx d 8 18 22 18 20 18 05 17 FF
18.5571 1 123 Rx d 8 18 32 18 28 18 03 18 02
18.56717 1 123 Rx d 8 18 34 18 23 18 0F 17 FF
18.57723 1 123 Rx d 8 18 37 18 20 18 14 17 FD
18.58709 1 123 Rx d 8 18 46 18 1D 18 1C 18 03
18.59725 1 123 Rx d 8 18 46 18 35 18 18 18 03
18.60718 1 123 Rx d 8 18 40 18 40 18 0F 18 0E
18.61718 1 123 Rx d 8 18 44 18 41 18 12 18 12
18.62715 1 123 Rx d 8 18 43 18 3E 18 17 18 0C
18.63721 1 123 Rx d 8 18 4C 18 47 18 23 18 18
18.6471 1 123 Rx d 8 18 4D 18 4D 18 2B 18 1C
18.65725 1 123 Rx d 8 18 43 18 4A 18 2C 18 20
18.66713 1 123 Rx d 8 18 55 18 49 18 2E 18 2B
18.6772 1 123 Rx d 8 18 55 18 53 18 31 18 29
18.68724 1 123 Rx d 8 18 61 18 47 18 34 18 2C
18.6972 1 123 Rx d 8 18 67 18 50 18 40 18 2E
18.70715 1 123 Rx d 8 18 70 18 4D 18 43 18 2F
18.71721 1 123 Rx d 8 18 70 18 6A 18 3E 18 32
18.72722 1 123 Rx d 8 18 64 18 6A 18 3B 18 38
18.73719 1 123 Rx d 8 18 72 18 6C 18 3E 18 3A
18.74734 1 123 Rx d 8 18 6A 18 6A 18 43 18 41
18.75728 1 123 Rx d 8 18 78 18 79 18 50 18 46
18.76712 1 123 Rx d 8 18 75 18 76 18 50 18 4A
18.77722 1 123 Rx d 8 18 67 18 76 18 57 18 50
18.78718 1 123 Rx d 8 18 85 18 79 18 55 18 52
18.79721 1 123 Rx d 8 18 82 18 7F 18 5A 18 55
18.80722 1 123 Rx d 8 18 8A 18 73 18 61 18 5A
18.81728 1 123 Rx d 8 18 98 18 78 18 6A 18 5A
18.82714 1 123 Rx d 8 18 92 18 84 18 69 18 5B
18.83729 1 123 Rx d 8 18 96 18 98 18 64 18 5E
18.84725 1 123 Rx d 8 18 8E 18 96 18 66 18 63
18.85718 1 123 Rx d 8 18 98 18 95 18 66 18 67
18.86726 1 123 Rx d 8 18 96 18 96 18 6F 18 6D
18.87727 1 123 Rx d 8 18 A2 18 A5 18 76 18 70
18.88716 1 123 Rx d 8 18 95 18 A1 18 78 18 73
18.89732 1 123 Rx d 8 18 A4 18 9E 18 7E 18 79
18.90718 1 123 Rx d 8 18 A7 18 A2 18 7C 18 7E
18.91725 1 123 Rx d 8 18 B0 18 9F 18 84 18 7F
18.9272 1 123 Rx d 8 18 B3 18 A2 18 8D 18 81
18.93726 1 123 Rx d 8 18 BF 18 9F 18 92 18 85
18.94718 1 123 Rx d 8 18 C0 18 B9 18 93 18 82
18.95732 1 123 Rx d 8 18 B3 18 BC 18 8E 18 88
18.96724 1 123 Rx d 8 18 C0 18 BC 18 8A 18 8E
18.97726 1 123 Rx d 8 18 B7 18 BD 18 90 18 8E
18.98726 1 123 Rx d 8 18 C9 18 C9 18 98 18 99
18.99729 1 123 Rx d 8 18 C5 18 C9 18 A1 18 9B
19.0072 1 123 Rx d 8 18 BA 18 C9 18 A7 18 9F
19.01726 1 123 Rx d 8 18 D4 18 C8 18 A5 18 A5
19.02722 1 123 Rx d 8 18 CD 18 CE 18 A7 18 AA
19.03725 1 123 Rx d 8 18 D9 18 C3 18 B0 18 AE
19.04717 1 123 Rx d 8 18 E9 18 CD 18 BA 18 AB
19.05732 1 123 Rx d 8 18 EB 18 D6 18 BF 18 AE
19.06708 1 123 Rx d 8 18 E5 18 E6 18 B7 18 AE
19.07732 1 123 Rx d 8 18 DF 18 E8 18 B4 18 B6
19.08726 1 123 Rx d 8 18 E6 18 E6 18 B6 18 B7
19.09717 1 123 Rx d 8 18 EF 18 EE 18 BF 18 C2
19.10729 1 123 Rx d 8 18 F5 18 FA 18 C8 18 C2
19.11734 1 123 Rx d 8 18 E2 18 F2 18 CB 18 C5
19.12715 1 123 Rx d 8 18 F5 18 EC 18 D4 18 CB
19.1373 1 123 Rx d 8 18 F5 18 F8 18 CD 18 D3
19.14726 1 123 Rx d 8 19 01 18 F1 18 D6 18 D4
19.15723 1 123 Rx d 8 19 0B 18 F8 18 DF 18 D6
19.16724 1 123 Rx d 8 19 0C 18 EC 18 E2 18 D4
19.17729 1 123 Rx d 8 19 0F 19 0E 18 E0 18 D3
19.18719 1 123 Rx d 8 19 04 19 0C 18 DC 18 DD
19.19735 1 123 Rx d 8 19 11 19 12 18 DD 18 E2
19.20725 1 123 Rx d 8 19 0E 19 0C 18 E2 18 E6
19.21726 1 123 Rx d 8 19 17 19 1A 18 E9 18 E6
19.22731 1 123 Rx d 8 19 0F 19 17 18 EE 18 E6
19.23731 1 123 Rx d 8 19 15 19 18 18 F5 18 EF
19.24724 1 123 Rx d 8 19 27 19 21 18 F7 18 F7
19.25731 1 123 Rx d 8 19 26 19 20 18 FB 18 FB
19.26733 1 123 Rx d 8 19 2C 19 18 19 01 18 FE
19.2773 1 123 Rx d 8 19 35 19 12 19 08 18 FA
19.28722 1 123 Rx d 8 19 35 19 2A 19 09 18 FB
19.29734 1 123 Rx d 8 19 27 19 2D 19 06 18 FE
19.30723 1 123 Rx d 8 19 33 19 38 19 06 19 08
19.31733 1 123 Rx d 8 19 30 19 2F 19 06 19 09
19.32733 1 123 Rx d 8 19 3E 19 46 19 0E 19 0C
19.33735 1 123 Rx d 8 19 3E 19 3C 19 12 19 0F
19.34731 1 123 Rx d 8 19 2C 19 3F 19 1A 19 12
19.35736 1 123 Rx d 8 19 47 19 3B 19 1D 19 1D
19.36724 1 123 Rx d 8 19 43 19 43 19 1E 19 1E
19.37739 1 123 Rx d 8 19 4D 19 39 19 23 19 21
19.38734 1 123 Rx d 8 19 5F 19 3C 19 29 19 20
19.39726 1 123 Rx d 8 19 58 19 4A 19 30 19 1E
19.40736 1 123 Rx d 8 19 4D 19 58 19 2A 19 21
19.41744 1 123 Rx d 8 19 53 19 5C 19 29 19 27
19.4272 1 123 Rx d 8 19 55 19 53 19 29 19 29
19.43741 1 123 Rx d 8 19 65 19 62 19 2C 19 2C
19.44724 1 123 Rx d 8 19 61 19 62 19 36 19 33
19.4573 1 123 Rx d 8 19 50 19 64 19 3B 19 33
19.46734 1 123 Rx d 8 19 6B 19 61 19 44 19 3F
19.47738 1 123 Rx d 8 19 68 19 6A 19 43 19 43
19.48729 1 123 Rx d 8 19 74 19 5F 19 44 19 44
19.4974 1 123 Rx d 8 19 82 19 64 19 4C 19 44
19.50732 1 123 Rx d 8 19 7F 19 68 19 50 19 47
19.5173 1 123 Rx d 8 19 7A 19 7F 19 50 19 44
19.52734 1 123 Rx d 8 19 73 19 84 19 4F 19 4C
19.53737 1 123 Rx d 8 19 7C 19 7C 19 4F 19 50
19.54723 1 123 Rx d 8 19 87 19 85 19 4F 19 55
19.55736 1 123 Rx d 8 19 8A 19 8D 19 59 19 59
19.56731 1 123 Rx d 8 19 7A 19 88 19 61 19 5C
19.57733 1 123 Rx d 8 19 8B 19 87 19 6B 19 62
19.58725 1 123 Rx d 8 19 8D 19 8E 19 68 19 68
19.59742 1 123 Rx d 8 19 94 19 82 19 6D 19 6B
19.60718 1 123 Rx d 8 19 A6 19 8B 19 6D 19 6E
19.61739 1 123 Rx d 8 19 A3 19 8A 19 77 19 70
19.6274 1 123 Rx d 8 19 A6 19 A8 19 79 19 6A
19.6373 1 123 Rx d 8 19 91 19 A8 19 74 19 70
19.64734 1 123 Rx d 8 19 A9 19 A3 19 77 19 74
19.65739 1 123 Rx d 8 19 A6 19 A6 19 77 19 7A
19.66726 1 123 Rx d 8 19 B7 19 B2 19 7C 19 82
19.67741 1 123 Rx d 8 19 9D 19 AF 19 85 19 84
19.68735 1 123 Rx d 8 19 B4 19 AC 19 8B 19 87
19.69731 1 123 Rx d 8 19 B2 19 B4 19 91 19 8E
19.70733 1 123 Rx d 8 19 BF 19 AE 19 93 19 8E
19.71744 1 123 Rx d 8 19 CC 19 B5 19 96 19 91
19.72728 1 123 Rx d 8 19 CE 19 B1 19 9C 19 94
19.73744 1 123 Rx d 8 19 CE 19 CC 19 9C 19 96
19.74734 1 123 Rx d 8 19 BF 19 CE 19 9C 19 96
19.75736 1 123 Rx d 8 19 C9 19 CC 19 9D 19 9D
19.76739 1 123 Rx d 8 19 CF 19 CE 19 9D 19 9F
19.77738 1 123 Rx d 8 19 D8 19 DD 19 A2 19 A5
19.78735 1 123 Rx d 8 19 C9 19 D5 19 A8 19 AC
19.79743 1 123 Rx d 8 19 D8 19 D4 19 B5 19 AC
19.80739 1 123 Rx d 8 19 D8 19 DA 19 B7 19 B2
19.81738 1 123 Rx d 8 19 E3 19 D5 19 B5 19 B2
19.82732 1 123 Rx d 8 19 F0 19 DA 19 BA 19 B4
19.83744 1 123 Rx d 8 19 F3 19 D5 19 BD 19 B5
19.84733 1 123 Rx d 8 19 F2 19 F0 19 C3 19 BA
19.85743 1 123 Rx d 8 19 E4 19 F2 19 C2 19 BD
19.86739 1 123 Rx d 8 19 F2 19 F3 19 C0 19 C3
19.87752 1 123 Rx d 8 19 F3 19 F5 19 C2 19 C3
19.88743 1 123 Rx d 8 19 FE 1A 01 19 C5 19 C8
19.89745 1 123 Rx d 8 19 EA 19 FA 19 CF 19 CC
19.9073 1 123 Rx d 8 1A 03 19 F5 19 D7 19 D2
19.91745 1 123 Rx d 8 19 FD 1A 00 19 DB 19 D8
19.92745 1 123 Rx d 8 1A 0A 19 FA 19 E0 19 DE
19.93737 1 123 Rx d 8 1A 18 1A 00 19 E1 19 DB
19.9474 1 123 Rx d 8 1A 18 19 FD 19 E7 19 DB
19.9575 1 123 Rx d 8 1A 16 1A 12 19 E9 19 DA
19.9672 1 123 Rx d 8 1A 09 1A 18 19 E9 19 DE
19.97747 1 123 Rx d 8 1A 13 1A 15 19 E9 19 E6
19.98743 1 123 Rx d 8 1A 1F 1A 1F 19 E9 19 E7
19.99747 1 123 Rx d 8 1A 24 1A 25 19 EA 19 EF
20.00742 1 123 Rx d 8 1A 12 1A 1C 19 F5 19 F7
20.01745 1 123 Rx d 8 1A 24 1A 1F 1A 01 19 F8
20.0274 1 123 Rx d 8 1A 25 1A 25 1A 00 1A 01
20.03748 1 123 Rx d 8 1A 2B 1A 1F 1A 04 19 FE
20.04738 1 123 Rx d 8 1A 3E 1A 22 1A 04 19 FE
20.05737 1 123 Rx d 8 1A 41 1A 22 1A 0C 1A 01
20.0674 1 123 Rx d 8 1A 35 1A 39 1A 0D 1A 06
20.07747 1 123 Rx d 8 1A 36 1A 3E 1A 0F 1A 09
20.08724 1 123 Rx d 8 1A 36 1A 3E 1A 0F 1A 0A
20.09764 1 123 Rx d 8 1A 3E 1A 42 1A 0C 1A 0C
20.1074 1 123 Rx d 8 1A 42 1A 42 1A 0F 1A 0F
20.1174 1 123 Rx d 8 1A 33 1A 3C 1A 15 1A 16
20.12738 1 123 Rx d 8 1A 4B 1A 41 1A 21 1A 1F
20.13751 1 123 Rx d 8 1A 41 1A 44 1A 25 1A 24
20.14739 1 123 Rx d 8 1A 4D 1A 41 1A 28 1A 21
20.15746 1 123 Rx d 8 1A 5C 1A 38 1A 27 1A 1E
20.16744 1 123 Rx d 8 1A 5A 1A 47 1A 2B 1A 22
20.17748 1 123 Rx d 8 1A 4B 1A 50 1A 2A 1A 24
20.18744 1 123 Rx d 8 1A 4D 1A 56 1A 2B 1A 2B
20.1975 1 123 Rx d 8 1A 45 1A 50 1A 2B 1A 2B
20.20734 1 123 Rx d 8 1A 5C 1A 60 1A 2E 1A 2A
20.2175 1 123 Rx d 8 1A 57 1A 59 1A 32 1A 2E
20.22744 1 123 Rx d 8 1A 54 1A 59 1A 35 1A 35
20.23741 1 123 Rx d 8 1A 66 1A 5A 1A 3F 1A 3E
20.24743 1 123 Rx d 8 1A 5A 1A 56 1A 3F 1A 3F
20.25752 1 123 Rx d 8 1A 66 1A 53 1A 42 1A 3F
20.26738 1 123 Rx d 8 1A 6B 1A 50 1A 48 1A 39
20.27751 1 123 Rx d 8 1A 73 1A 65 1A 48 1A 3E
20.28743 1 123 Rx d 8 1A 60 1A 65 1A 45 1A 3F
20.29745 1 123 Rx d 8 1A 65 1A 66 1A 48 1A 45
20.30748 1 123 Rx d 8 1A 65 1A 60 1A 47 1A 3F
20.31748 1 123 Rx d 8 1A 70 1A 76 1A 44 1A 42
20.32742 1 123 Rx d 8 1A 6D 1A 6E 1A 4A 1A 4D
20.33751 1 123 Rx d 8 1A 70 1A 71 1A 50 1A 50
20.34744 1 123 Rx d 8 1A 79 1A 71 1A 59 1A 56
20.35747 1 123 Rx d 8 1A 7A 1A 6B 1A 5F 1A 5C
20.36744 1 123 Rx d 8 1A 88 1A 73 1A 5F 1A 59
20.37757 1 123 Rx d 8 1A 95 1A 71 1A 62 1A 57
20.38744 1 123 Rx d 8 1A 98 1A 97 1A 5F 1A 56
20.39755 1 123 Rx d 8 1A 85 1A 8B 1A 57 1A 54
20.40748 1 123 Rx d 8 1A 88 1A 8C 1A 60 1A 5F
20.41748 1 123 Rx d 8 1A 86 1A 83 1A 62 1A 60
20.42749 1 123 Rx d 8 1A 91 1A 92 1A 65 1A 65
20.43752 1 123 Rx d 8 1A 83 1A 8E 1A 6B 1A 68
20.44741 1 123 Rx d 8 1A 95 1A 8E 1A 68 1A 6B
20.45755 1 123 Rx d 8 1A 91 1A 8E 1A 73 1A 6E
20.46757 1 123 Rx d 8 1A 92 1A 85 1A 74 1A 74
20.47745 1 123 Rx d 8 1A A9 1A 89 1A 7D 1A 76
20.48746 1 123 Rx d 8 1A AE 1A 8F 1A 80 1A 73
20.49754 1 123 Rx d 8 1A A8 1A A8 1A 7C 1A 71
20.50742 1 123 Rx d 8 1A A1 1A A9 1A 74 1A 6E
20.5176 1 123 Rx d 8 1A A1 1A A4 1A 77 1A 77
20.52749 1 123 Rx d 8 1A A9 1A AC 1A 7D 1A 7C
20.53753 1 123 Rx d 8 1A A9 1A A8 1A 83 1A 86
20.54753 1 123 Rx d 8 1A 9B 1A A8 1A 88 1A 85
20.55751 1 123 Rx d 8 1A B4 1A A8 1A 8C 1A 88
20.56743 1 123 Rx d 8 1A AF 1A AF 1A 8C 1A 8E
20.57753 1 123 Rx d 8 1A BB 1A A4 1A 91 1A 8E
20.58746 1 123 Rx d 8 1A C6 1A A4 1A 98 1A 91
20.59749 1 123 Rx d 8 1A CC 1A BA 1A 98 1A 8F
20.60746 1 123 Rx d 8 1A B5 1A C0 1A 98 1A 8E
20.61756 1 123 Rx d 8 1A C1 1A C3 1A 94 1A 91
20.62733 1 123 Rx d 8 1A BE 1A BE 1A 94 1A 97
20.63754 1 123 Rx d 8 1A CC 1A CD 1A 9B 1A 9B
20.64749 1 123 Rx d 8 1A C1 1A C9 1A 9E 1A A0
20.65752 1 123 Rx d 8 1A CD 1A CA 1A A3 1A 9E
20.66747 1 123 Rx d 8 1A D5 1A D2 1A AB 1A A4
20.6776 1 123 Rx d 8 1A D5 1A CF 1A AB 1A A8
20.68747 1 123 Rx d 8 1A E9 1A CD 1A AF 1A AF
20.69751 1 123 Rx d 8 1A EA 1A CD 1A B8 1A B4
20.70753 1 123 Rx d 8 1A ED 1A E7 1A BB 1A B2
20.71749 1 123 Rx d 8 1A D8 1A E4 1A B8 1A AE
20.72753 1 123 Rx d 8 1A D9 1A DB 1A B5 1A AE
20.73758 1 123 Rx d 8 1A D9 1A D9 1A B5 1A B8
20.74734 1 123 Rx d 8 1A E1 1A E6 1A BA 1A BB
20.75759 1 123 Rx d 8 1A D5 1A E3 1A C0 1A C3
20.76756 1 123 Rx d 8 1A F2 1A E6 1A C6 1A C0
20.77758 1 123 Rx d 8 1A EC 1A E7 1A C9 1A C1
20.78752 1 123 Rx d 8 1A ED 1A E1 1A CA 1A C7
20.79763 1 123 Rx d 8 1B 01 1A DC 1A D0 1A CC
20.80747 1 123 Rx d 8 1B 01 1A ED 1A D3 1A CD
20.81759 1 123 Rx d 8 1A F2 1A F8 1A D5 1A CC
20.82752 1 123 Rx d 8 1A F5 1A F9 1A CF 1A C9
20.83755 1 123 Rx d 8 1A F2 1A F8 1A CD 1A CA
20.84754 1 123 Rx d 8 1B 01 1B 05 1A CF 1A D2
20.85754 1 123 Rx d 8 1A F6 1A FF 1A D5 1A D5
20.86751 1 123 Rx d 8 1A FE 1A F6 1A D9 1A DB
20.87762 1 123 Rx d 8 1B 04 1A FE 1A E3 1A DB
20.88753 1 123 Rx d 8 1B 07 1A FB 1A E3 1A E1
20.89758 1 123 Rx d 8 1B 11 1A FC 1A E6 1A E3
20.90755 1 123 Rx d 8 1B 16 1A F5 1A EA 1A E4
20.91766 1 123 Rx d 8 1B 0E 1B 10 1A F0 1A E6
20.92751 1 123 Rx d 8 1B 0A 1B 13 1A EC 1A E3
20.93763 1 123 Rx d 8 1B 13 1B 11 1A E7 1A E9
20.94757 1 123 Rx d 8 1B 14 1B 16 1A EA 1A E7
20.95758 1 123 Rx d 8 1B 21 1B 19 1A E7 1A EC
20.96756 1 123 Rx d 8 1B 02 1B 11 1A F2 1A F3
20.97765 1 123 Rx d 8 1B 21 1B 16 1A F6 1A F5
20.98754 1 123 Rx d 8 1B 1E 1B 1F 1B 01 1A FB
20.99768 1 123 Rx d 8 1B 24 1B 11 1A FE 1A FE
21.0077 1 123 Rx d 8 1B 34 1B 0D 1B 02 1A FC
21.01752 1 123 Rx d 8 1B 33 1B 1F 1B 05 1A F9
21.0276 1 123 Rx d 8 1B 25 1B 28 1B 05 1B 01
21.03771 1 123 Rx d 8 1B 2A 1B 31 1B 04 1A FC
21.04749 1 123 Rx d 8 1B 2B 1B 28 1A FF 1B 02
21.0577 1 123 Rx d 8 1B 30 1B 37 1A FF 1B 01
21.06758 1 123 Rx d 8 1B 2A 1B 2B 1B 02 1B 05
21.07754 1 123 Rx d 8 1B 31 1B 2B 1B 13 1B 0B
21.08759 1 123 Rx d 8 1B 37 1B 36 1B 17 1B 10
21.09778 1 123 Rx d 8 1B 3F 1B 2D 1B 17 1B 14
21.10753 1 123 Rx d 8 1B 4B 1B 33 1B 1A 1B 14
21.11764 1 123 Rx d 8 1B 48 1B 27 1B 19 1B 13
21.12756 1 123 Rx d 8 1B 45 1B 42 1B 22 1B 17
21.13754 1 123 Rx d 8 1B 3F 1B 45 1B 24 1B 16
21.14755 1 123 Rx d 8 1B 45 1B 42 1B 1F 1B 16
21.15761 1 123 Rx d 8 1B 4C 1B 48 1B 1C 1B 19
21.1675 1 123 Rx d 8 1B 4B 1B 4E 1B 19 1B 1C
21.17763 1 123 Rx d 8 1B 3C 1B 42 1B 1F 1B 22
21.1876 1 123 Rx d 8 1B 52 1B 49 1B 2D 1B 27
21.19762 1 123 Rx d 8 1B 51 1B 48 1B 39 1B 2B
21.20756 1 123 Rx d 8 1B 5C 1B 42 1B 36 1B 31
21.21765 1 123 Rx d 8 1B 68 1B 3C 1B 37 1B 2B
21.22755 1 123 Rx d 8 1B 6C 1B 52 1B 37 1B 2B
21.23762 1 123 Rx d 8 1B 59 1B 5C 1B 37 1B 2E
21.24762 1 123 Rx d 8 1B 60 1B 5F 1B 3A 1B 2A
21.25758 1 123 Rx d 8 1B 5F 1B 5D 1B 37 1B 2E
21.26765 1 123 Rx d 8 1B 65 1B 66 1B 39 1B 31
21.2777 1 123 Rx d 8 1B 57 1B 59 1B 3A 1B 37
21.28744 1 123 Rx d 8 1B 6F 1B 5A 1B 40 1B 3D
21.29768 1 123 Rx d 8 1B 6E 1B 63 1B 4C 1B 40
21.30761 1 123 Rx d 8 1B 74 1B 5C 1B 4C 1B 42
21.31761 1 123 Rx d 8 1B 81 1B 5C 1B 4C 1B 45
21.32762 1 123 Rx d 8 1B 80 1B 5F 1B 52 1B 42
21.33774 1 123 Rx d 8 1B 74 1B 72 1B 55 1B 49
21.34759 1 123 Rx d 8 1B 77 1B 74 1B 59 1B 49
21.35768 1 123 Rx d 8 1B 78 1B 6F 1B 55 1B 4B
21.36761 1 123 Rx d 8 1B 80 1B 7B 1B 51 1B 46
21.37763 1 123 Rx d 8 1B 81 1B 7A 1B 4F 1B 4B
21.38765 1 123 Rx d 8 1B 7E 1B 78 1B 54 1B 52
21.39765 1 123 Rx d 8 1B 8C 1B 7A 1B 65 1B 5A
21.40758 1 123 Rx d 8 1B 89 1B 6F 1B 6E 1B 5F
21.41774 1 123 Rx d 8 1B 97 1B 72 1B 71 1B 5C
21.42761 1 123 Rx d 8 1B 9D 1B 6C 1B 72 1B 5F
21.43768 1 123 Rx d 8 1B 9D 1B 8D 1B 6E 1B 5D
21.44767 1 123 Rx d 8 1B 8F 1B 8F 1B 6E 1B 5F
21.45774 1 123 Rx d 8 1B 90 1B 8A 1B 6B 1B 5F
21.46757 1 123 Rx d 8 1B 97 1B 8D 1B 6E 1B 65
21.47769 1 123 Rx d 8 1B 9A 1B 8F 1B 71 1B 66
21.48768 1 123 Rx d 8 1B 8F 1B 8C 1B 74 1B 68
21.49767 1 123 Rx d 8 1B A6 1B 8F 1B 7A 1B 6E
21.50766 1 123 Rx d 8 1B A3 1B 92 1B 80 1B 72
21.51771 1 123 Rx d 8 1B A9 1B 8F 1B 84 1B 78
21.52759 1 123 Rx d 8 1B B3 1B 86 1B 86 1B 77
21.53768 1 123 Rx d 8 1B B6 1B 9E 1B 87 1B 77
21.54766 1 123 Rx d 8 1B A3 1B A0 1B 89 1B 77
21.55767 1 123 Rx d 8 1B AA 1B A4 1B 87 1B 74
21.5677 1 123 Rx d 8 1B AC 1B A1 1B 89 1B 7A
21.57775 1 123 Rx d 8 1B AD 1B AC 1B 83 1B 78
21.58748 1 123 Rx d 8 1B 9E 1B A1 1B 84 1B 80
21.59776 1 123 Rx d 8 1B B9 1B A1 1B 8C 1B 81
21.60766 1 123 Rx d 8 1B B6 1B A4 1B 95 1B 86
21.6176 1 123 Rx d 8 1B B5 1B 9E 1B 98 1B 8A
21.62767 1 123 Rx d 8 1B C5 1B 9E 1B 9B 1B 89
21.63775 1 123 Rx d 8 1B C5 1B AC 1B 9A 1B 8A
21.64762 1 123 Rx d 8 1B B9 1B B5 1B 9D 1B 8D
21.65771 1 123 Rx d 8 1B BC 1B B5 1B 95 1B 89
21.66764 1 123 Rx d 8 1B BB 1B B0 1B 98 1B 8C
21.67769 1 123 Rx d 8 1B BE 1B BF 1B 97 1B 89
21.68765 1 123 Rx d 8 1B B3 1B B9 1B 98 1B 8F
21.69774 1 123 Rx d 8 1B C7 1B B5 1B 9E 1B 92
21.70761 1 123 Rx d 8 1B C8 1B BB 1B A3 1B 97
21.71776 1 123 Rx d 8 1B C8 1B AF 1B A7 1B 9A
21.72767 1 123 Rx d 8 1B D6 1B B0 1B AC 1B 9D
21.73768 1 123 Rx d 8 1B D8 1B AF 1B AD 1B 9D
21.74766 1 123 Rx d 8 1B CF 1B CD 1B AF 1B 98
21.75774 1 123 Rx d 8 1B CD 1B CB 1B A9 1B 9D
21.76765 1 123 Rx d 8 1B CB 1B C5 1B AA 1B A0
21.77772 1 123 Rx d 8 1B D5 1B CF 1B AC 1B 9D
21.78776 1 123 Rx d 8 1B D0 1B CD 1B AC 1B A3
21.79767 1 123 Rx d 8 1B D3 1B CB 1B B0 1B A4
21.80764 1 123 Rx d 8 1B DB 1B D2 1B B2 1B A9
21.81778 1 123 Rx d 8 1B DB 1B C8 1B BB 1B B0
21.82772 1 123 Rx d 8 1B E5 1B C8 1B BF 1B B8
21.83778 1 123 Rx d 8 1B EE 1B C2 1B C5 1B B5
21.84775 1 123 Rx d 8 1B ED 1B E1 1B C7 1B AF
21.8577 1 123 Rx d 8 1B E7 1B E2 1B C1 1B B0
21.8677 1 123 Rx d 8 1B E2 1B DF 1B BC 1B B0
21.87779 1 123 Rx d 8 1B E8 1B E5 1B C1 1B B3
21.88762 1 123 Rx d 8 1B E8 1B E7 1B C4 1B BB
21.89774 1 123 Rx d 8 1B E2 1B DE 1B C7 1B BF
21.90769 1 123 Rx d 8 1B FA 1B E4 1B CA 1B BE
21.91772 1 123 Rx d 8 1B F4 1B E7 1B D3 1B C2
21.92776 1 123 Rx d 8 1C 00 1B E5 1B D2 1B C8
21.93775 1 123 Rx d 8 1C 02 1B DE 1B D9 1B CF
21.94768 1 123 Rx d 8 1C 06 1B FC 1B DB 1B CB
21.95782 1 123 Rx d 8 1B F7 1B F6 1B D8 1B CD
21.96776 1 123 Rx d 8 1B FC 1B F6 1B D6 1B C7
21.97777 1 123 Rx d 8 1C 02 1B F7 1B D8 1B CA
21.98776 1 123 Rx d 8 1C 06 1C 02 1B D9 1B D2
21.99778 1 123 Rx d 8 1B F7 1C 00 1B DE 1B D8
22.00773 1 123 Rx d 8 1C 11 1C 00 1B DC 1B DB
22.01776 1 123 Rx d 8 1C 0D 1C 02 1B EB 1B DC
22.02778 1 123 Rx d 8 1C 13 1B F4 1B EB 1B E4
22.03775 1 123 Rx d 8 1C 1A 1B F0 1B F3 1B E4
22.0477 1 123 Rx d 8 1C 1D 1C 0B 1B F9 1B E8
22.05777 1 123 Rx d 8 1C 10 1C 13 1B F3 1B EB
22.06775 1 123 Rx d 8 1C 1C 1C 1A 1B ED 1B E2
22.07786 1 123 Rx d 8 1C 1F 1C 13 1B EE 1B E4
22.08775 1 123 Rx d 8 1C 20 1C 22 1B F1 1B E4
22.09774 1 123 Rx d 8 1C 0E 1C 14 1B F7 1B EE
22.10777 1 123 Rx d 8 1C 23 1C 11 1B FA 1B F7
22.11783 1 123 Rx d 8 1C 23 1C 10 1C 00 1B F9
22.12756 1 123 Rx d 8 1C 25 1C 0B 1C 03 1B FC
22.13789 1 123 Rx d 8 1C 35 1C 09 1C 05 1B FA
22.14778 1 123 Rx d 8 1C 34 1C 23 1C 09 1B F7
22.1577 1 123 Rx d 8 1C 28 1C 2B 1C 0E 1B FC
22.16775 1 123 Rx d 8 1C 2C 1C 2F 1C 06 1B FA
22.17777 1 123 Rx d 8 1C 2F 1C 22 1C 05 1B FD
22.1877 1 123 Rx d 8 1C 2F 1C 2F 1C 06 1C 00
22.1978 1 123 Rx d 8 1C 1F 1C 26 1C 08 1C 00
22.20773 1 123 Rx d 8 1C 37 1C 28 1C 0E 1C 08
22.21776 1 123 Rx d 8 1C 37 1C 2E 1C 13 1C 08
22.22778 1 123 Rx d 8 1C 3B 1C 23 1C 14 1C 0D
22.23782 1 123 Rx d 8 1C 4C 1C 22 1C 16 1C 0D
22.24768 1 123 Rx d 8 1C 48 1C 32 1C 1C 1C 11
22.25782 1 123 Rx d 8 1C 37 1C 3D 1C 22 1C 13
22.26776 1 123 Rx d 8 1C 3D 1C 3E 1C 1D 1C 17
22.27778 1 123 Rx d 8 1C 41 1C 3A 1C 1C 1C 14
22.28775 1 123 Rx d 8 1C 48 1C 49 1C 17 1C 14
22.29782 1 123 Rx d 8 1C 34 1C 43 1C 1A 1C 14
22.30774 1 123 Rx d 8 1C 51 1C 3E 1C 1D 1C 19
22.31779 1 123 Rx d 8 1C 4C 1C 48 1C 28 1C 1F
22.32781 1 123 Rx d 8 1C 4E 1C 37 1C 2C 1C 28
22.33779 1 123 Rx d 8 1C 5B 1C 37 1C 2C 1C 2B
22.34775 1 123 Rx d 8 1C 5B 1C 43 1C 31 1C 26
22.35788 1 123 Rx d 8 1C 4B 1C 52 1C 32 1C 25
22.36774 1 123 Rx d 8 1C 51 1C 54 1C 2E 1C 26
22.37786 1 123 Rx d 8 1C 4F 1C 51 1C 2E 1C 23
22.38779 1 123 Rx d 8 1C 55 1C 64 1C 29 1C 2C
22.39779 1 123 Rx d 8 1C 48 1C 58 1C 2C 1C 2F
22.4078 1 123 Rx d 8 1C 64 1C 54 1C 31 1C 31
22.41787 1 123 Rx d 8 1C 60 1C 54 1C 38 1C 37
22.42771 1 123 Rx d 8 1C 5A 1C 4B 1C 40 1C 37
22.43785 1 123 Rx d 8 1C 67 1C 4E 1C 40 1C 40
22.4478 1 123 Rx d 8 1C 69 1C 5A 1C 44 1C 3B
22.45781 1 123 Rx d 8 1C 5E 1C 61 1C 40 1C 37
22.46785 1 123 Rx d 8 1C 63 1C 64 1C 3A 1C 34
22.47787 1 123 Rx d 8 1C 69 1C 67 1C 3B 1C 34
22.48776 1 123 Rx d 8 1C 6A 1C 79 1C 3E 1C 3E
22.4979 1 123 Rx d 8 1C 5B 1C 75 1C 3D 1C 41
22.50776 1 123 Rx d 8 1C 76 1C 64 1C 43 1C 48
22.51784 1 123 Rx d 8 1C 6C 1C 6C 1C 44 1C 49
22.52783 1 123 Rx d 8 1C 78 1C 60 1C 51 1C 4C
22.53784 1 123 Rx d 8 1C 7B 1C 67 1C 55 1C 4E
22.54779 1 123 Rx d 8 1C 89 1C 72 1C 57 1C 4F
22.55788 1 123 Rx d 8 1C 6F 1C 7C 1C 57 1C 4F
22.56782 1 123 Rx d 8 1C 76 1C 7F 1C 4F 1C 51
22.5778 1 123 Rx d 8 1C 7C 1C 79 1C 4F 1C 54
22.58783 1 123 Rx d 8 1C 7F 1C 8C 1C 54 1C 52
22.59791 1 123 Rx d 8 1C 72 1C 7F 1C 55 1C 51
22.60781 1 123 Rx d 8 1C 8A 1C 7F 1C 58 1C 5D
22.61792 1 123 Rx d 8 1C 89 1C 89 1C 63 1C 66
22.62782 1 123 Rx d 8 1C 99 1C 83 1C 67 1C 67
22.63781 1 123 Rx d 8 1C 92 1C 7B 1C 6A 1C 67
22.64782 1 123 Rx d 8 1C 9C 1C 8A 1C 6D 1C 60
22.6579 1 123 Rx d 8 1C 7F 1C 8F 1C 6A 1C 67
22.66766 1 123 Rx d 8 1C 93 1C 96 1C 6F 1C 67
22.67789 1 123 Rx d 8 1C 96 1C 90 1C 67 1C 6D
22.68783 1 123 Rx d 8 1C A2 1C A5 1C 6C 1C 6A
22.69777 1 123 Rx d 8 1C 86 1C 9C 1C 66 1C 67
22.70784 1 123 Rx d 8 1C A2 1C 9B 1C 6C 1C 6F
22.71787 1 123 Rx d 8 1C 9F 1C A4 1C 7B 1C 75
22.7278 1 123 Rx d 8 1C A5 1C 92 1C 81 1C 81
22.73789 1 123 Rx d 8 1C B4 1C 92 1C 83 1C 7F
22.748 1 123 Rx d 8 1C B7 1C A5 1C 8A 1C 83
22.75787 1 123 Rx d 8 1C A5 1C AD 1C 89 1C 7F
22.76784 1 123 Rx d 8 1C A8 1C B1 1C 84 1C 7C
22.77788 1 123 Rx d 8 1C AD 1C AB 1C 79 1C 7B
22.78778 1 123 Rx d 8 1C B3 1C B4 1C 84 1C 7E
22.79792 1 123 Rx d 8 1C A4 1C B4 1C 87 1C 89
22.80788 1 123 Rx d 8 1C C7 1C B1 1C 90 1C 90
22.81783 1 123 Rx d 8 1C B3 1C B6 1C 98 1C 93
22.82783 1 123 Rx d 8 1C BF 1C A5 1C 98 1C 90
22.83792 1 123 Rx d 8 1C C5 1C A5 1C 90 1C 90
22.84782 1 123 Rx d 8 1C CD 1C BF 1C 9F 1C 92
22.85788 1 123 Rx d 8 1C C2 1C C7 1C A2 1C 96
22.8679 1 123 Rx d 8 1C C4 1C C4 1C A1 1C 99
22.87789 1 123 Rx d 8 1C CA 1C C2 1C 9F 1C 9B
22.88783 1 123 Rx d 8 1C C7 1C CD 1C 9C 1C 99
22.89796 1 123 Rx d 8 1C BF 1C C7 1C 98 1C 98
22.90783 1 123 Rx d 8 1C D3 1C C5 1C 9B 1C 9F
22.91796 1 123 Rx d 8 1C D1 1C CB 1C AE 1C A7
22.92786 1 123 Rx d 8 1C DA 1C BE 1C B7 1C AB
22.93784 1 123 Rx d 8 1C DF 1C BC 1C B9 1C B4
22.94789 1 123 Rx d 8 1C D9 1C D3 1C B7 1C AD
22.95793 1 123 Rx d 8 1C D1 1C DC 1C AE 1C A8
22.96787 1 123 Rx d 8 1C DC 1C DA 1C B0 1C AB
22.97795 1 123 Rx d 8 1C DD 1C DF 1C B3 1C B3
22.98793 1 123 Rx d 8 1C D9 1C DD 1C B6 1C B3
22.99791 1 123 Rx d 8 1C D1 1C D6 1C B7 1C B4
23.00791 1 123 Rx d 8 1C E3 1C DA 1C B3 1C B6
23.01795 1 123 Rx d 8 1C E5 1C D9 1C BE 1C B7
23.02783 1 123 Rx d 8 1C F2 1C D6 1C C1 1C BE
23.03798 1 123 Rx d 8 1C F2 1C D0 1C C7 1C BF
23.04787 1 123 Rx d 8 1C E8 1C EC 1C CD 1C C2
23.05794 1 123 Rx d 8 1C E8 1C EC 1C CB 1C C2
23.06791 1 123 Rx d 8 1C E8 1C E5 1C C2 1C BC
23.07793 1 123 Rx d 8 1C EC 1C EE 1C BF 1C BF
23.08784 1 123 Rx d 8 1C E2 1C EC 1C BF 1C BF
23.09793 1 123 Rx d 8 1C EC 1C EB 1C C7 1C C8
23.10796 1 123 Rx d 8 1C F1 1C F2 1C CD 1C CD
23.11793 1 123 Rx d 8 1C F5 1C E8 1C D1 1C CD
23.12791 1 123 Rx d 8 1D 05 1C E6 1C D3 1C CE
23.13801 1 123 Rx d 8 1D 05 1C E5 1C D7 1C D1
23.14785 1 123 Rx d 8 1C F5 1D 00 1C DD 1C D3
23.15796 1 123 Rx d 8 1C F9 1D 02 1C DD 1C DA
23.16791 1 123 Rx d 8 1C FC 1C F9 1C D7 1C D3
23.17799 1 123 Rx d 8 1D 02 1D 08 1C D6 1C D1
23.18791 1 123 Rx d 8 1C F5 1D 00 1C D6 1C D1
23.19801 1 123 Rx d 8 1D 0E 1C FD 1C D7 1C D4
23.20776 1 123 Rx d 8 1D 08 1D 08 1C DC 1C DC
23.21796 1 123 Rx d 8 1D 09 1C F4 1C E5 1C E0
23.22793 1 123 Rx d 8 1D 18 1C FF 1C E8 1C E5
23.23786 1 123 Rx d 8 1D 17 1D 02 1C EC 1C E6
23.24794 1 123 Rx d 8 1D 0C 1D 17 1C F1 1C E6
23.25796 1 123 Rx d 8 1D 15 1D 15 1C EE 1C E6
23.26777 1 123 Rx d 8 1D 18 1D 0F 1C EB 1C E6
23.27804 1 123 Rx d 8 1D 1B 1D 21 1C E8 1C E9
23.28792 1 123 Rx d 8 1D 0B 1D 1A 1C EC 1C E9
23.29793 1 123 Rx d 8 1D 24 1D 1B 1C F1 1C EF
23.30793 1 123 Rx d 8 1D 23 1D 1A 1C F9 1C F5
23.31799 1 123 Rx d 8 1D 29 1D 0C 1D 02 1C FA
23.32786 1 123 Rx d 8 1D 32 1D 0F 1D 03 1D 02
23.33798 1 123 Rx d 8 1D 34 1D 26 1D 06 1C FD
23.34797 1 123 Rx d 8 1D 27 1D 32 1D 08 1C FD
23.35792 1 123 Rx d 8 1D 2F 1D 2F 1D 08 1C FA
23.36794 1 123 Rx d 8 1D 34 1D 2F 1D 06 1C FC
23.37802 1 123 Rx d 8 1D 30 1D 34 1D 09 1D 02
23.38791 1 123 Rx d 8 1D 2F 1D 2D 1D 0B 1D 06
23.39799 1 123 Rx d 8 1D 3B 1D 2F 1D 0C 1D 09
23.40796 1 123 Rx d 8 1D 41 1D 32 1D 12 1D 0E
23.41796 1 123 Rx d 8 1D 44 1D 27 1D 1A 1D 11
23.42792 1 123 Rx d 8 1D 4A 1D 24 1D 20 1D 17
23.43806 1 123 Rx d 8 1D 44 1D 41 1D 26 1D 17
23.44788 1 123 Rx d 8 1D 4C 1D 47 1D 27 1D 14
23.45798 1 123 Rx d 8 1D 49 1D 40 1D 20 1D 18
23.46797 1 123 Rx d 8 1D 53 1D 4A 1D 1E 1D 14
23.47791 1 123 Rx d 8 1D 3B 1D 46 1D 1E 1D 17
23.48801 1 123 Rx d 8 1D 4F 1D 43 1D 20 1D 1A
23.49804 1 123 Rx d 8 1D 4D 1D 49 1D 27 1D 1E
23.50791 1 123 Rx d 8 1D 56 1D 3E 1D 32 1D 23
23.51805 1 123 Rx d 8 1D 65 1D 3E 1D 35 1D 26
23.52801 1 123 Rx d 8 1D 64 1D 3B 1D 38 1D 2C
23.53801 1 123 Rx d 8 1D 53 1D 56 1D 38 1D 27
23.54797 1 123 Rx d 8 1D 5B 1D 5B 1D 3A 1D 29
23.55803 1 123 Rx d 8 1D 5B 1D 53 1D 35 1D 26
23.56794 1 123 Rx d 8 1D 5E 1D 5B 1D 38 1D 29
23.57808 1 123 Rx d 8 1D 4C 1D 50 1D 3A 1D 2C
23.58796 1 123 Rx d 8 1D 65 1D 4C 1D 37 1D 2F
23.59803 1 123 Rx d 8 1D 64 1D 59 1D 37 1D 2F
23.608 1 123 Rx d 8 1D 68 1D 4A 1D 3E 1D 34
23.61798 1 123 Rx d 8 1D 75 1D 4F 1D 41 1D 35
23.62798 1 123 Rx d 8 1D 76 1D 5E 1D 4F 1D 3B
23.6381 1 123 Rx d 8 1D 6A 1D 6A 1D 53 1D 3D
23.64801 1 123 Rx d 8 1D 6D 1D 6B 1D 4D 1D 3B
23.65801 1 123 Rx d 8 1D 72 1D 62 1D 43 1D 38
23.66795 1 123 Rx d 8 1D 6F 1D 72 1D 46 1D 3D
23.67808 1 123 Rx d 8 1D 6B 1D 65 1D 49 1D 3D
23.68794 1 123 Rx d 8 1D 7C 1D 70 1D 4D 1D 44
23.69804 1 123 Rx d 8 1D 7F 1D 6F 1D 55 1D 44
23.70798 1 123 Rx d 8 1D 8B 1D 67 1D 5C 1D 4C
23.71798 1 123 Rx d 8 1D 8B 1D 5B 1D 5B 1D 52
23.72799 1 123 Rx d 8 1D 84 1D 7F 1D 62 1D 56
23.73803 1 123 Rx d 8 1D 84 1D 82 1D 68 1D 56
23.74783 1 123 Rx d 8 1D 85 1D 84 1D 62 1D 55
23.75805 1 123 Rx d 8 1D 8E 1D 8D 1D 5F 1D 50
23.76803 1 123 Rx d 8 1D 7F 1D 85 1D 5F 1D 53
23.7781 1 123 Rx d 8 1D 99 1D 82 1D 5F 1D 5B
23.78806 1 123 Rx d 8 1D 97 1D 8B 1D 65 1D 61
23.79809 1 123 Rx d 8 1D 94 1D 81 1D 73 1D 65
23.80784 1 123 Rx d 8 1D A0 1D 81 1D 76 1D 6A
23.81809 1 123 Rx d 8 1D A3 1D 84 1D 78 1D 6B
23.82802 1 123 Rx d 8 1D 96 1D 94 1D 7C 1D 6D
23.83802 1 123 Rx d 8 1D A2 1D 9F 1D 7B 1D 68
23.84801 1 123 Rx d 8 1D A6 1D 93 1D 75 1D 68
23.85809 1 123 Rx d 8 1D A0 1D A8 1D 76 1D 6D
23.86794 1 123 Rx d 8 1D 93 1D 99 1D 78 1D 6F
23.87815 1 123 Rx d 8 1D AE 1D 9C 1D 7B 1D 78
23.88802 1 123 Rx d 8 1D AE 1D 9A 1D 82 1D 79
23.89802 1 123 Rx d 8 1D B4 1D 91 1D 8B 1D 7B
23.90807 1 123 Rx d 8 1D BA 1D 90 1D 8A 1D 7E
23.9181 1 123 Rx d 8 1D B4 1D AD 1D 8E 1D 82
23.92801 1 123 Rx d 8 1D B0 1D AE 1D 93 1D 87
23.93808 1 123 Rx d 8 1D B3 1D B0 1D 90 1D 82
23.94806 1 123 Rx d 8 1D B9 1D AE 1D 8D 1D 7E
23.95807 1 123 Rx d 8 1D AD 1D B1 1D 90 1D 7F
23.96799 1 123 Rx d 8 1D B4 1D AB 1D 8D 1D 84
23.97824 1 123 Rx d 8 1D BC 1D B0 1D 90 1D 8B
23.98798 1 123 Rx d 8 1D BD 1D A8 1D 94 1D 90
23.9981 1 123 Rx d 8 1D CC 1D A8 1D 9D 1D 91
24.0081 1 123 Rx d 8 1D CB 1D A2 1D A2 1D 91
24.01806 1 123 Rx d 8 1D B9 1D C0 1D A6 1D 91
24.02809 1 123 Rx d 8 1D C5 1D BF 1D A6 1D 93
24.03814 1 123 Rx d 8 1D C6 1D BD 1D 9F 1D 96
24.04802 1 123 Rx d 8 1D C9 1D C5 1D 9A 1D 90
24.05813 1 123 Rx d 8 1D B4 1D BF 1D 9C 1D 91
24.06808 1 123 Rx d 8 1D D1 1D BA 1D A0 1D 96
24.07828 1 123 Rx d 8 1D CB 1D C3 1D A5 1D 9C
24.08808 1 123 Rx d 8 1D D7 1D B6 1D AD 1D A0
24.09813 1 123 Rx d 8 1D DE 1D B9 1D AD 1D A5
24.10802 1 123 Rx d 8 1D DB 1D C8 1D B3 1D A6
24.11818 1 123 Rx d 8 1D CE 1D D2 1D B6 1D A5
24.12801 1 123 Rx d 8 1D D5 1D CF 1D B1 1D AA
24.13805 1 123 Rx d 8 1D DB 1D D4 1D B0 1D A3
24.14827 1 123 Rx d 8 1D D2 1D D8 1D B0 1D A6
24.15812 1 123 Rx d 8 1D DB 1D D2 1D B1 1D A6
24.16807 1 123 Rx d 8 1D DE 1D D7 1D B4 1D B0
24.17833 1 123 Rx d 8 1D E1 1D D2 1D BA 1D B4
24.18808 1 123 Rx d 8 1D F2 1D CF 1D C3 1D B7
24.19808 1 123 Rx d 8 1D F2 1D CB 1D C2 1D BF
24.20808 1 123 Rx d 8 1D E0 1D E3 1D C8 1D B9
24.21815 1 123 Rx d 8 1D E6 1D E8 1D CB 1D B9
24.22802 1 123 Rx d 8 1D EE 1D E5 1D C3 1D BD
24.23814 1 123 Rx d 8 1D EF 1D F1 1D C2 1D B6
24.24806 1 123 Rx d 8 1D E0 1D E9 1D C0 1D BA
24.25804 1 123 Rx d 8 1D F8 1D E5 1D C3 1D BA
24.2681 1 123 Rx d 8 1D F5 1D EC 1D C9 1D C3
24.27813 1 123 Rx d 8 1D FB 1D DE 1D D4 1D CC
24.28801 1 123 Rx d 8 1E 03 1D DD 1D D7 1D CC
24.29815 1 123 Rx d 8 1D FE 1D F4 1D D8 1D D1
24.30814 1 123 Rx d 8 1D F8 1D FA 1D DA 1D CC
24.31808 1 123 Rx d 8 1D FB 1D FA 1D D8 1D CC
24.32814 1 123 Rx d 8 1E 03 1D FA 1D D2 1D CC
24.33819 1 123 Rx d 8 1D F7 1D FE 1D D5 1D CC
24.34798 1 123 Rx d 8 1E 00 1D F8 1D D5 1D D1
24.35819 1 123 Rx d 8 1E 04 1D FE 1D DB 1D D7
24.3681 1 123 Rx d 8 1E 0A 1D F5 1D E0 1D DA
24.37808 1 123 Rx d 8 1E 16 1D F7 1D E9 1D DD
24.38813 1 123 Rx d 8 1E 1B 1D F2 1D E9 1D DE
24.39823 1 123 Rx d 8 1E 06 1E 0C 1D EE 1D DD
24.40808 1 123 Rx d 8 1E 12 1E 13 1D EF 1D E1
24.41822 1 123 Rx d 8 1E 15 1E 09 1D E9 1D E3
24.42812 1 123 Rx d 8 1E 10 1E 19 1D E6 1D E5
24.43812 1 123 Rx d 8 1E 0A 1E 0D 1D E9 1D E3
24.44813 1 123 Rx d 8 1E 1C 1E 0C 1D EB 1D E6
24.45819 1 123 Rx d 8 1E 1F 1E 13 1D F2 1D E9
24.46807 1 123 Rx d 8 1E 27 1E 07 1D F8 1D EF
24.47818 1 123 Rx d 8 1E 26 1E 03 1D FA 1D F4
24.48812 1 123 Rx d 8 1E 1F 1E 1C 1D FD 1D F8
24.49814 1 123 Rx d 8 1E 1E 1E 24 1E 03 1D F7
24.50809 1 123 Rx d 8 1E 26 1E 23 1E 00 1D F5
24.51824 1 123 Rx d 8 1E 2A 1E 24 1D FD 1D F5
24.52811 1 123 Rx d 8 1E 1B 1E 2A 1D FD 1D F4
24.53817 1 123 Rx d 8 1E 32 1E 1F 1D FE 1D FB
24.5482 1 123 Rx d 8 1E 2F 1E 2C 1E 04 1E 00
24.55816 1 123 Rx d 8 1E 30 1E 18 1E 06 1E 04
24.5682 1 123 Rx d 8 1E 3E 1E 1C 1E 12 1E 04
24.57825 1 123 Rx d 8 1E 3E 1E 21 1E 12 1E 07
24.58808 1 123 Rx d 8 1E 30 1E 36 1E 13 1E 07
24.59821 1 123 Rx d 8 1E 36 1E 3B 1E 16 1E 07
24.60817 1 123 Rx d 8 1E 39 1E 32 1E 0C 1E 0D
24.6182 1 123 Rx d 8 1E 36 1E 3F 1E 0F 1E 0A
24.62817 1 123 Rx d 8 1E 2F 1E 35 1E 12 1E 0D
24.63822 1 123 Rx d 8 1E 41 1E 36 1E 15 1E 0F
24.64808 1 123 Rx d 8 1E 45 1E 39 1E 18 1E 12
24.65825 1 123 Rx d 8 1E 54 1E 2F 1E 1B 1E 18
24.66818 1 123 Rx d 8 1E 57 1E 2D 1E 1E 1E 18
24.6782 1 123 Rx d 8 1E 4A 1E 4A 1E 24 1E 1E
24.68822 1 123 Rx d 8 1E 44 1E 4D 1E 2C 1E 19
24.69821 1 123 Rx d 8 1E 4D 1E 47 1E 2C 1E 1F
24.70815 1 123 Rx d 8 1E 48 1E 51 1E 26 1E 1C
24.71824 1 123 Rx d 8 1E 41 1E 4D 1E 24 1E 1F
24.72817 1 123 Rx d 8 1E 5A 1E 4A 1E 21 1E 1F
24.73818 1 123 Rx d 8 1E 5E 1E 53 1E 23 1E 23
24.74815 1 123 Rx d 8 1E 61 1E 48 1E 2F 1E 2C
24.75824 1 123 Rx d 8 1E 64 1E 47 1E 38 1E 32
24.76809 1 123 Rx d 8 1E 62 1E 5C 1E 3C 1E 36
24.77821 1 123 Rx d 8 1E 5C 1E 61 1E 44 1E 35
24.78815 1 123 Rx d 8 1E 65 1E 5A 1E 3E 1E 32
24.79815 1 123 Rx d 8 1E 6A 1E 5E 1E 33 1E 32
24.8082 1 123 Rx d 8 1E 5F 1E 68 1E 36 1E 32
24.81822 1 123 Rx d 8 1E 6B 1E 68 1E 36 1E 33
24.8283 1 123 Rx d 8 1E 6D 1E 74 1E 3E 1E 38
24.83826 1 123 Rx d 8 1E 76 1E 61 1E 45 1E 41
24.84821 1 123 Rx d 8 1E 7F 1E 61 1E 51 1E 47
24.85813 1 123 Rx d 8 1E 7F 1E 59 1E 53 1E 4B
24.86818 1 123 Rx d 8 1E 6B 1E 74 1E 53 1E 4A
24.87832 1 123 Rx d 8 1E 7C 1E 80 1E 53 1E 4B
24.88802 1 123 Rx d 8 1E 83 1E 71 1E 4E 1E 4B
24.89828 1 123 Rx d 8 1E 79 1E 82 1E 4B 1E 45
24.90821 1 123 Rx d 8 1E 6D 1E 70 1E 51 1E 47
24.91819 1 123 Rx d 8 1E 76 1E 73 1E 56 1E 4A
24.92822 1 123 Rx d 8 1E 82 1E 7D 1E 59 1E 56
24.93827 1 123 Rx d 8 1E 92 1E 6D 1E 5E 1E 5A
24.94817 1 123 Rx d 8 1E 97 1E 6D 1E 5E 1E 5A
24.9583 1 123 Rx d 8 1E 82 1E 85 1E 65 1E 59
24.96822 1 123 Rx d 8 1E 83 1E 89 1E 6D 1E 4D
24.9782 1 123 Rx d 8 1E 8E 1E 82 1E 67 1E 59
24.98824 1 123 Rx d 8 1E 8B 1E 8F 1E 64 1E 5C
24.99829 1 123 Rx d 8 1E 7C 1E 86 1E 62 1E 5A
25.00813 1 123 Rx d 8 1E 95 1E 83 1E 62 1E 5F
25.01824 1 123 Rx d 8 1E 91 1E 89 1E 64 1E 54
25.02824 1 123 Rx d 8 1E 9F 1E 79 1E 65 1E 5C
25.03823 1 123 Rx d 8 1E 9D 1E 79 1E 6E 1E 67
25.0482 1 123 Rx d 8 1E 9D 1E 92 1E 77 1E 6D
25.05832 1 123 Rx d 8 1E A2 1E 99 1E 83 1E 74
25.0682 1 123 Rx d 8 1E 99 1E 9D 1E 7F 1E 6B
25.07827 1 123 Rx d 8 1E A5 1E 9D 1E 73 1E 6A
25.08828 1 123 Rx d 8 1E 8E 1E 9A 1E 6D 1E 67
25.09826 1 123 Rx d 8 1E A0 1E 97 1E 73 1E 6B
25.10824 1 123 Rx d 8 1E AC 1E 9F 1E 7D 1E 74
25.1183 1 123 Rx d 8 1E AB 1E 94 1E 80 1E 79
25.12815 1 123 Rx d 8 1E BD 1E 91 1E 83 1E 76
25.13833 1 123 Rx d 8 1E B2 1E 97 1E 85 1E 7C
25.14827 1 123 Rx d 8 1E A3 1E A9 1E 8B 1E 7C
25.15823 1 123 Rx d 8 1E A8 1E AE 1E 92 1E 80
25.16822 1 123 Rx d 8 1E B8 1E AB 1E 8B 1E 82
25.17831 1 123 Rx d 8 1E AC 1E B5 1E 85 1E 7D
25.18822 1 123 Rx d 8 1E B5 1E AB 1E 8B 1E 80
25.19833 1 123 Rx d 8 1E B4 1E AC 1E 80 1E 80
25.20828 1 123 Rx d 8 1E B8 1E A9 1E 8E 1E 8B
25.21828 1 123 Rx d 8 1E CD 1E AE 1E 9C 1E 8F
25.22827 1 123 Rx d 8 1E C7 1E A8 1E 9C 1E 94
25.23827 1 123 Rx d 8 1E B8 1E C0 1E A3 1E 94
25.24823 1 123 Rx d 8 1E BA 1E BE 1E A2 1E 91
25.2583 1 123 Rx d 8 1E C6 1E BB 1E 9A 1E 94
25.26823 1 123 Rx d 8 1E C1 1E CD 1E 92 1E 95
25.27827 1 123 Rx d 8 1E BB 1E C7 1E 99 1E 97
25.28827 1 123 Rx d 8 1E CD 1E C4 1E 9D 1E 9A
25.29827 1 123 Rx d 8 1E CD 1E C7 1E A3 1E 9C
25.30837 1 123 Rx d 8 1E DA 1E B8 1E A3 1E A2
25.31829 1 123 Rx d 8 1E D7 1E B5 1E A6 1E A6
25.32825 1 123 Rx d 8 1E C4 1E D5 1E AB 1E AF
25.33824 1 123 Rx d 8 1E C6 1E D2 1E B2 1E AF
25.34831 1 123 Rx d 8 1E D4 1E CD 1E B4 1E B1
25.35834 1 123 Rx d 8 1E D5 1E D7 1E A9 1E A8
25.36819 1 123 Rx d 8 1E C7 1E D7 1E A3 1E 9D
25.37833 1 123 Rx d 8 1E DE 1E D7 1E A3 1E A9
25.3883 1 123 Rx d 8 1E D8 1E E1 1E AB 1E B2
25.39825 1 123 Rx d 8 1E E1 1E CF 1E B5 1E BD
25.40828 1 123 Rx d 8 1E E6 1E C7 1E BE 1E C0
25.41835 1 123 Rx d 8 1E DB 1E DB 1E BD 1E BA
25.4281 1 123 Rx d 8 1E DD 1E E3 1E BD 1E B4
25.43837 1 123 Rx d 8 1E E3 1E E9 1E B8 1E B5
25.44828 1 123 Rx d 8 1E E6 1E ED 1E B5 1E BB
25.4583 1 123 Rx d 8 1E D4 1E F0 1E B8 1E BD
25.46833 1 123 Rx d 8 1E EC 1E E6 1E BB 1E C0
25.47836 1 123 Rx d 8 1E EA 1E EC 1E C0 1E C0
25.48826 1 123 Rx d 8 1E F2 1E DE 1E C1 1E C3
25.49837 1 123 Rx d 8 1E FB 1E E1 1E C4 1E CC
25.50829 1 123 Rx d 8 1E F5 1E ED 1E C7 1E CF
25.51829 1 123 Rx d 8 1E EA 1E F9 1E CF 1E D0
25.52842 1 123 Rx d 8 1E F0 1E FE 1E D5 1E CD
25.53838 1 123 Rx d 8 1E F9 1E F8 1E D0 1E CD
25.54823 1 123 Rx d 8 1E EC 1F 01 1E C9 1E CC
25.55834 1 123 Rx d 8 1E FE 1E F3 1E C9 1E D0
25.56837 1 123 Rx d 8 1E FC 1E FC 1E CA 1E D5
25.57835 1 123 Rx d 8 1F 05 1E F5 1E CF 1E D7
25.58829 1 123 Rx d 8 1F 0B 1E F6 1E D8 1E D8
25.59841 1 123 Rx d 8 1F 0F 1E FB 1E DE 1E DD
25.60831 1 123 Rx d 8 1E FC 1F 0D 1E E3 1E DE
25.61835 1 123 Rx d 8 1F 04 1F 0F 1E E7 1E E1
25.62836 1 123 Rx d 8 1F 0F 1F 0A 1E E3 1E E4
25.63833 1 123 Rx d 8 1F 0A 1F 19 1E DD 1E DE
25.64835 1 123 Rx d 8 1F 12 1F 0B 1E DE 1E DE
25.65841 1 123 Rx d 8 1F 18 1F 12 1E E4 1E E0
25.66827 1 123 Rx d 8 1F 1C 1F 08 1E E9 1E E7
25.67842 1 123 Rx d 8 1F 22 1F 0A 1E F3 1E EF
25.68833 1 123 Rx d 8 1F 27 1F 0A 1E F5 1E F0
25.6983 1 123 Rx d 8 1F 13 1F 21 1E F9 1E F5
25.70836 1 123 Rx d 8 1F 24 1F 24 1E FF 1E F3
25.71842 1 123 Rx d 8 1F 2A 1F 19 1E FC 1E F2
25.72832 1 123 Rx d 8 1F 27 1F 2B 1E F8 1E F3
25.73844 1 123 Rx d 8 1F 25 1F 24 1E F9 1E F5
25.74833 1 123 Rx d 8 1F 2E 1F 27 1E FC 1E F9
25.75835 1 123 Rx d 8 1F 34 1F 27 1F 01 1E FE
25.76838 1 123 Rx d 8 1F 42 1F 1B 1F 0B 1F 01
25.77835 1 123 Rx d 8 1F 3F 1F 15 1F 10 1F 02
25.78831 1 123 Rx d 8 1F 2D 1F 30 1F 12 1F 08
25.79842 1 123 Rx d 8 1F 37 1F 39 1F 15 1F 07
25.8083 1 123 Rx d 8 1F 43 1F 30 1F 15 1F 08
25.81835 1 123 Rx d 8 1F 40 1F 3F 1F 13 1F 0A
25.82833 1 123 Rx d 8 1F 39 1F 34 1F 18 1F 07
25.83838 1 123 Rx d 8 1F 48 1F 36 1F 18 1F 0A
25.84833 1 123 Rx d 8 1F 4A 1F 3A 1F 18 1F 12
25.85843 1 123 Rx d 8 1F 5F 1F 30 1F 1C 1F 16
25.86838 1 123 Rx d 8 1F 59 1F 27 1F 25 1F 1B
25.87838 1 123 Rx d 8 1F 46 1F 42 1F 2D 1F 1C
25.88838 1 123 Rx d 8 1F 4E 1F 4A 1F 33 1F 1B
25.89841 1 123 Rx d 8 1F 59 1F 46 1F 33 1F 1C
25.9083 1 123 Rx d 8 1F 53 1F 56 1F 28 1F 1F
25.91843 1 123 Rx d 8 1F 54 1F 4D 1F 2B 1F 1C
25.92835 1 123 Rx d 8 1F 5C 1F 45 1F 2B 1F 22
25.93834 1 123 Rx d 8 1F 62 1F 4D 1F 2E 1F 21
25.94838 1 123 Rx d 8 1F 6B 1F 3D 1F 33 1F 2A
25.95845 1 123 Rx d 8 1F 6E 1F 3F 1F 3F 1F 2E
25.96821 1 123 Rx d 8 1F 5A 1F 57 1F 43 1F 31
25.97847 1 123 Rx d 8 1F 63 1F 5D 1F 4A 1F 33
25.98839 1 123 Rx d 8 1F 6B 1F 59 1F 48 1F 30
25.99834 1 123 Rx d 8 1F 6B 1F 65 1F 3D 1F 31
26.00842 1 123 Rx d 8 1F 65 1F 60 1F 3D 1F 30
26.01845 1 123 Rx d 8 1F 72 1F 5D 1F 42 1F 37
26.02832 1 123 Rx d 8 1F 74 1F 63 1F 43 1F 3A
26.03846 1 123 Rx d 8 1F 7E 1F 51 1F 4D 1F 3A
26.04846 1 123 Rx d 8 1F 80 1F 50 1F 54 1F 3D
26.05836 1 123 Rx d 8 1F 71 1F 6B 1F 54 1F 40
26.06841 1 123 Rx d 8 1F 75 1F 75 1F 57 1F 43
26.07844 1 123 Rx d 8 1F 7E 1F 6B 1F 5A 1F 43
26.08835 1 123 Rx d 8 1F 78 1F 75 1F 53 1F 48
26.09863 1 123 Rx d 8 1F 71 1F 6C 1F 53 1F 45
26.10842 1 123 Rx d 8 1F 85 1F 6B 1F 54 1F 45
26.11849 1 123 Rx d 8 1F 83 1F 75 1F 54 1F 48
26.12839 1 123 Rx d 8 1F 91 1F 66 1F 59 1F 4B
26.13849 1 123 Rx d 8 1F 8F 1F 60 1F 63 1F 53
26.14838 1 123 Rx d 8 1F 7D 1F 7B 1F 68 1F 57
26.15843 1 123 Rx d 8 1F 85 1F 7E 1F 68 1F 56
26.1685 1 123 Rx d 8 1F 89 1F 7A 1F 6B 1F 54
26.17843 1 123 Rx d 8 1F 89 1F 85 1F 60 1F 56
26.18844 1 123 Rx d 8 1F 7D 1F 7B 1F 60 1F 53
26.19851 1 123 Rx d 8 1F 92 1F 7A 1F 60 1F 53
26.20827 1 123 Rx d 8 1F 91 1F 81 1F 63 1F 56
26.21848 1 123 Rx d 8 1F A1 1F 72 1F 68 1F 59
26.22848 1 123 Rx d 8 1F 9D 1F 71 1F 6F 1F 5D
26.23844 1 123 Rx d 8 1F 8B 1F 8B 1F 6F 1F 62
26.24844 1 123 Rx d 8 1F 8B 1F 8B 1F 77 1F 66
26.25858 1 123 Rx d 8 1F 9A 1F 86 1F 78 1F 63
26.26839 1 123 Rx d 8 1F 95 1F 91 1F 6F 1F 65
26.27848 1 123 Rx d 8 1F 92 1F 8E 1F 6E 1F 5D
26.28841 1 123 Rx d 8 1F 9D 1F 8B 1F 6E 1F 5D
26.29841 1 123 Rx d 8 1F 9E 1F 92 1F 71 1F 63
26.30845 1 123 Rx d 8 1F AC 1F 85 1F 78 1F 6B
26.31845 1 123 Rx d 8 1F AA 1F 80 1F 81 1F 6F
26.32835 1 123 Rx d 8 1F 98 1F 98 1F 81 1F 74
26.3385 1 123 Rx d 8 1F 9E 1F 9B 1F 85 1F 72
26.34838 1 123 Rx d 8 1F A7 1F 97 1F 83 1F 6E
26.35844 1 123 Rx d 8 1F A7 1F A4 1F 7B 1F 74
26.36843 1 123 Rx d 8 1F 9E 1F A0 1F 7B 1F 6F
26.37849 1 123 Rx d 8 1F AD 1F 9E 1F 7E 1F 6F
26.3884 1 123 Rx d 8 1F AC 1F A4 1F 81 1F 77
26.39852 1 123 Rx d 8 1F C0 1F 95 1F 85 1F 7A
26.40846 1 123 Rx d 8 1F BC 1F 91 1F 8B 1F 81
26.41848 1 123 Rx d 8 1F AC 1F AD 1F 8E 1F 88
26.42843 1 123 Rx d 8 1F B0 1F B3 1F 94 1F 85
26.43849 1 123 Rx d 8 1F B8 1F AF 1F 95 1F 81
26.44838 1 123 Rx d 8 1F B6 1F B6 1F 8F 1F 80
26.4585 1 123 Rx d 8 1F B5 1F B2 1F 8C 1F 7E
26.46848 1 123 Rx d 8 1F BE 1F AF 1F 8E 1F 86
26.47845 1 123 Rx d 8 1F BE 1F B3 1F 94 1F 8B
26.48847 1 123 Rx d 8 1F CC 1F A6 1F 95 1F 91
26.49855 1 123 Rx d 8 1F D0 1F A4 1F 9D 1F 94
26.5083 1 123 Rx d 8 1F B9 1F C4 1F A0 1F 95
26.51856 1 123 Rx d 8 1F C4 1F C7 1F A3 1F 92
26.52849 1 123 Rx d 8 1F CD 1F C3 1F A9 1F 94
26.53843 1 123 Rx d 8 1F C6 1F D0 1F 9E 1F 9B
26.54851 1 123 Rx d 8 1F C9 1F C6 1F A1 1F 98
26.55857 1 123 Rx d 8 1F D2 1F C1 1F A0 1F 98
26.56832 1 123 Rx d 8 1F D5 1F C6 1F A4 1F 98
26.57852 1 123 Rx d 8 1F E2 1F B8 1F AA 1F 9D
26.58851 1 123 Rx d 8 1F DC 1F B6 1F B2 1F A4
26.59849 1 123 Rx d 8 1F C9 1F D6 1F B2 1F A7
26.60851 1 123 Rx d 8 1F D0 1F D3 1F B3 1F AA
26.61859 1 123 Rx d 8 1F E1 1F D5 1F BB 1F AA
26.62844 1 123 Rx d 8 1F D9 1F E1 1F AF 1F AA
26.63856 1 123 Rx d 8 1F DF 1F D8 1F AF 1F A7
26.64852 1 123 Rx d 8 1F E1 1F D5 1F B3 1F A7
26.6586 1 123 Rx d 8 1F E4 1F D6 1F B5 1F AA
26.66848 1 123 Rx d 8 1F EE 1F CF 1F B9 1F B2
26.67856 1 123 Rx d 8 1F F1 1F CA 1F C1 1F B3
26.68847 1 123 Rx d 8 1F E2 1F E7 1F C1 1F BC
26.69854 1 123 Rx d 8 1F EE 1F ED 1F C7 1F BE
26.70855 1 123 Rx d 8 1F F0 1F E5 1F C7 1F B9
26.71851 1 123 Rx d 8 1F EB 1F F6 1F C3 1F BB
26.72845 1 123 Rx d 8 1F F4 1F E5 1F C7 1F B5
26.73857 1 123 Rx d 8 20 01 1F ED 1F CD 1F BC
26.74849 1 123 Rx d 8 20 04 1F EA 1F CA 1F C3
26.75861 1 123 Rx d 8 20 07 1F E5 1F CF 1F C7
26.7686 1 123 Rx d 8 20 05 1F E5 1F D2 1F CD
26.77854 1 123 Rx d 8 1F F1 1F F7 1F D9 1F CF
26.78851 1 123 Rx d 8 1F FC 1F FB 1F DF 1F CF
26.79857 1 123 Rx d 8 20 07 1F F4 1F E1 1F D0
26.80848 1 123 Rx d 8 1F F9 20 02 1F D8 1F CF
26.81861 1 123 Rx d 8 20 08 1F F9 1F D6 1F CD
26.82864 1 123 Rx d 8 20 08 1F FE 1F D3 1F CC
26.8385 1 123 Rx d 8 20 0D 1F F9 1F D9 1F D5
26.84854 1 123 Rx d 8 20 16 1F F3 1F E2 1F D6
26.85851 1 123 Rx d 8 20 13 1F F4 1F EB 1F DC
26.86844 1 123 Rx d 8 20 08 20 08 1F F1 1F E4
26.87858 1 123 Rx d 8 20 11 20 0D 1F ED 1F DF
26.88849 1 123 Rx d 8 20 10 20 08 1F EB 1F DC
26.89854 1 123 Rx d 8 20 05 20 14 1F E5 1F D9
26.90856 1 123 Rx d 8 20 1A 20 08 1F E7 1F D5
26.91861 1 123 Rx d 8 20 1C 20 0D 1F EE 1F DF
26.92848 1 123 Rx d 8 20 25 20 05 1F EE 1F E5
26.93858 1 123 Rx d 8 20 26 20 04 1F F1 1F EB
26.94851 1 123 Rx d 8 20 1A 20 0E 1F F7 1F EB
26.95855 1 123 Rx d 8 20 17 20 19 1F F9 1F EA
26.96855 1 123 Rx d 8 20 25 20 20 1F FE 1F EB
26.97859 1 123 Rx d 8 20 22 20 1D 20 02 1F F1
26.98848 1 123 Rx d 8 20 1C 20 23 1F F6 1F F1
26.99863 1 123 Rx d 8 20 2E 20 16 1F FE 1F F6
27.00855 1 123 Rx d 8 20 2C 20 25 1F FB 1F F1
27.01853 1 123 Rx d 8 20 39 20 14 1F FE 1F F1
27.02858 1 123 Rx d 8 20 3A 20 19 20 0A 1F FE
27.03864 1 123 Rx d 8 20 31 20 2B 20 0D 20 02
27.04839 1 123 Rx d 8 20 34 20 32 20 10 20 0A
27.05863 1 123 Rx d 8 20 3D 20 2F 20 0E 20 07
27.06864 1 123 Rx d 8 20 36 20 39 20 0D 20 04
27.07852 1 123 Rx d 8 20 31 20 37 20 08 20 05
27.08857 1 123 Rx d 8 20 40 20 36 20 11 20 07
27.09863 1 123 Rx d 8 20 48 20 42 20 14 20 0B
27.10849 1 123 Rx d 8 20 55 20 2F 20 17 20 16
27.11863 1 123 Rx d 8 20 55 20 2B 20 1C 20 17
27.12861 1 123 Rx d 8 20 3F 20 48 20 1D 20 1C
27.1386 1 123 Rx d 8 20 45 20 4C 20 25 20 22
27.1486 1 123 Rx d 8 20 52 20 4C 20 2E 20 1D
27.15866 1 123 Rx d 8 20 49 20 51 20 28 20 1C
